! Created with skrf 1.8.0 (http://scikit-rf.org).
# Hz S RI R 50.0 
!freq ReS11 ImS11
5300000000.0 -0.2579021456377629 -0.5625918201093795
5302500000.0 -0.2734450735104676 -0.5578680765314661
5305000000.0 -0.288627214276337 -0.5525973722477491
5307500000.0 -0.30343550817707077 -0.5468070058724287
5310000000.0 -0.3178591955453761 -0.540523790912592
5312500000.0 -0.33188967152666804 -0.5337738341464554
5315000000.0 -0.34552031754076007 -0.5265823375387082
5317500000.0 -0.35874631311021477 -0.518973426114691
5320000000.0 -0.3715644318965758 -0.5109700036586838
5322500000.0 -0.38397282591745446 -0.5025936375356592
5325000000.0 -0.395970801968247 -0.4938644733740162
5327500000.0 -0.4075585942470169 -0.4848011797972553
5330000000.0 -0.41873713708398125 -0.47542092286720955
5332500000.0 -0.42950784151468246 -0.4657393694061315
5335000000.0 -0.4398723792143925 -0.4557707179091137
5337500000.0 -0.4498324770384127 -0.44552775534574407
5340000000.0 -0.4593897250956076 -0.43502193778765785
5342500000.0 -0.4685454009291793 -0.4242634924887572
5345000000.0 -0.4773003119969733 -0.41326153879078514
5347500000.0 -0.4856546582414182 -0.4020242250312488
5350000000.0 -0.4936079161250096 -0.3905588784919452
5352500000.0 -0.5011587450883902 -0.3788721653467619
5355000000.0 -0.5083049169724105 -0.36697025754417256
5357500000.0 -0.5150432685402442 -0.35485900359122224
5360000000.0 -0.5213696768478021 -0.342544100289479
5362500000.0 -0.5272790568460224 -0.3300312626045499
5365000000.0 -0.5327653802639013 -0.31732638902583776
5367500000.0 -0.5378217145200738 -0.30443571998632984
5370000000.0 -0.5424402801489031 -0.29136598715794215
5372500000.0 -0.5466125250063851 -0.27812455170985756
5375000000.0 -0.5503292133451914 -0.26471952990918984
5377500000.0 -0.5535805277176153 -0.25115990474765854
5380000000.0 -0.5563561815803632 -0.23745562258891728
5382500000.0 -0.5586455404360872 -0.22361767414124223
5385000000.0 -0.5604377493505842 -0.20965815936349858
5387500000.0 -0.5617218647302462 -0.19559033620246372
5390000000.0 -0.5624869883276009 -0.1814286533312977
5392500000.0 -0.562722401559632 -0.16718876730742296
5395000000.0 -0.5624176983697989 -0.15288754478923644
5397500000.0 -0.56156291503441 -0.13854305064201086
5400000000.0 -0.5601486555025916 -0.12417452292130601
5402500000.0 -0.5581662110602804 -0.10980233584643127
5405000000.0 -0.5556076733175992 -0.09544795196605843
5407500000.0 -0.5524660397292797 -0.08113386477359032
5410000000.0 -0.5487353110654667 -0.06688353305263302
5412500000.0 -0.5444105804496141 -0.05272130822480547
5415000000.0 -0.5394881137673609 -0.03867235593555245
5417500000.0 -0.5339654214219052 -0.024762573052213972
5420000000.0 -0.5278413215638245 -0.01101850116542669
5422500000.0 -0.5211159950548004 0.002532762415882251
5425000000.0 -0.513791032533296 0.015863655300164585
5427500000.0 -0.5058694740348428 0.02894624152802391
5430000000.0 -0.49735584168045177 0.04175230334403249
5432500000.0 -0.48825616598332505 0.05425343273493901
5435000000.0 -0.47857800633802555 0.06642112237277588
5437500000.0 -0.46833046624857033 0.07822685572524364
5440000000.0 -0.457524203824505 0.08964219621089511
5442500000.0 -0.44617143802905945 0.10063887538120393
5445000000.0 -0.43428595110335644 0.11118888020230845
5447500000.0 -0.4218830875180959 0.12126453958544228
5450000000.0 -0.4089797497218467 0.13083861037478955
5452500000.0 -0.39559439086597664 0.13988436304416743
5455000000.0 -0.381747004593111 0.1483756673792572
5457500000.0 -0.3674591118815772 0.15628707842989398
5460000000.0 -0.35275374484521826 0.1635939230077539
5462500000.0 -0.3376554272987551 0.17027238697930494
5465000000.0 -0.3221901518156189 0.17629960356322913
5467500000.0 -0.30638535293029245 0.18165374278684573
5470000000.0 -0.2902698760718313 0.18631410218908806
5472500000.0 -0.27387394176167407 0.19026119877973996
5475000000.0 -0.2572291045675789 0.1934768621779887
5477500000.0 -0.24036820627836786 0.1959443287594362
5480000000.0 -0.2233253227507412 0.1976483365419201
5482500000.0 -0.20613570388158636 0.19857522043834472
5485000000.0 -0.18883570617610632 0.19871300740131212
5487500000.0 -0.17146271741403796 0.19805151088191075
5490000000.0 -0.15405507296386212 0.19658242392470032
5492500000.0 -0.13665196335641408 0.19429941012541885
5495000000.0 -0.11929333280577754 0.19119819158829535
5497500000.0 -0.10201976845508473 0.1872766329382055
5500000000.0 -0.08487238022722401 0.18253482037065513
5502500000.0 -0.06789267127533308 0.1769751346615147
5505000000.0 -0.051122399152869084 0.1706023170098185
5507500000.0 -0.03460342795827853 0.16342352655250222
5510000000.0 -0.018377571852490192 0.1554483883709762
5512500000.0 -0.002486430497117138 0.14668903080704937
5515000000.0 0.013028782883316044 0.13716011092166885
5517500000.0 0.028127419954209285 0.1268788269647823
5520000000.0 0.04276958121840805 0.11586491677955889
5522500000.0 0.056916304280333285 0.10414064114068552
5525000000.0 0.0705297550948841 0.09173075112348886
5527500000.0 0.08357342072154306 0.07866243872079351
5530000000.0 0.09601230196671465 0.06496527006557914
5532500000.0 0.10781310417192888 0.05067110078095359
5535000000.0 0.11894442429631667 0.03581397316311171
5537500000.0 0.12937693235204567 0.02042999510656065
5540000000.0 0.13908354518366747 0.004557200903002431
5542500000.0 0.14803959054111104 -0.011764605717722953
5545000000.0 0.15622295938327463 -0.028494025685927366
5547500000.0 0.1636142443683105 -0.04558825495158194
5550000000.0 0.17019686254015448 -0.0630032899628407
5552500000.0 0.1759571603100257 -0.08069414685624443
5555000000.0 0.1808844989583283 -0.09861509269097435
5557500000.0 0.18497131904694109 -0.11671988680960992
5560000000.0 0.18821318233359513 -0.13496203017310643
5562500000.0 0.19060879001835115 -0.15329502030573394
5565000000.0 0.19215997642402438 -0.17167260930064734
5567500000.0 0.1928716775150078 -0.19004906218554585
5570000000.0 0.19275187398786825 -0.2083794128355183
5572500000.0 0.19181150901682426 -0.2266197145508131
5575000000.0 0.19006438110189555 -0.24472728239598793
5577500000.0 0.1875270128398395 -0.26266092442553884
5580000000.0 0.1842184968107949 -0.2803811590023445
5582500000.0 0.1801603201382828 -0.29785041554970393
5585000000.0 0.17537616962931354 -0.3150332162639606
5587500000.0 0.16989171972609501 -0.3318963365520889
5590000000.0 0.16373440579367712 -0.34840894224204594
5592500000.0 0.15693318552159385 -0.36454270193986704
5595000000.0 0.14951829142501383 -0.380271873269782
5597500000.0 0.14152097758755466 -0.3955733621246826
5600000000.0 0.13297326388831113 -0.4104267544672146
5602500000.0 0.12390768099767284 -0.42481432064675256
5605000000.0 0.1143570194081457 -0.4387209926262136
5607500000.0 0.10435408568749348 -0.4521343149362065
5610000000.0 0.09393146900412304 -0.46504437058203274
5612500000.0 0.08312132078069484 -0.4774436835145944
5615000000.0 0.07195515008671353 -0.4893270996296258
5617500000.0 0.06046363708899475 -0.5006916485745954
5620000000.0 0.04867646654720478 -0.5115363889126758
5622500000.0 0.03662218297764868 -0.5218622394128793
5625000000.0 0.024328068719723716 -0.5316717994014512
5627500000.0 0.011820045734243355 -0.5409691612193831
5630000000.0 -0.0008773984497541808 -0.5497597178827058
5632500000.0 -0.013741260635753197 -0.5580499690371629
5635000000.0 -0.026750048107606752 -0.5658473282372631
5637500000.0 -0.03988378181134839 -0.5731599344648954
5640000000.0 -0.053123977722130615 -0.5799964706377946
5642500000.0 -0.06645360788127577 -0.5863659916475227
5645000000.0 -0.07985704288791591 -0.592277764215863
5647500000.0 -0.09331997788858404 -0.5977411205727525
5650000000.0 -0.1068293443237635 -0.6027653276448213
5652500000.0 -0.12037320985981884 -0.6073594731074833
5655000000.0 -0.1339406690554518 -0.6115323693019575
5657500000.0 -0.1475217273840139 -0.6152924756584927
5660000000.0 -0.16110718125549714 -0.6186478399047688
5662500000.0 -0.17468849665617725 -0.6216060579807275
5665000000.0 -0.1882576889514988 -0.6241742522338715
5667500000.0 -0.2018072062800691 -0.6263590671384739
5670000000.0 -0.21532981880811075 -0.6281666814735124
5672500000.0 -0.22881851591638006 -0.629602835612629
5675000000.0 -0.24226641316072742 -0.6306728723293191
5677500000.0 -0.2556666705873735 -0.6313817893062192
5680000000.0 -0.2690124236993132 -0.6317343013615687
5682500000.0 -0.2822967280674102 -0.6317349102718508
5685000000.0 -0.2955125182634012 -0.6313879799786739
5687500000.0 -0.308652581468957 -0.6306978149220102
5690000000.0 -0.3217095457908774 -0.6296687392403847
5692500000.0 -0.3346758829934201 -0.6283051746221593
5695000000.0 -0.34754392505084863 -0.6266117146786715
5697500000.0 -0.3603058936325403 -0.6245931938379197
5700000000.0 -0.37295394136410703 -0.6222547489241073
5702500000.0 -0.3854802034672547 -0.6196018717896583
5705000000.0 -0.3978768581718292 -0.6166404515985546
5707500000.0 -0.4101361941203005 -0.6133768056178065
5710000000.0 -0.4222506828511428 -0.6098176976522969
5712500000.0 -0.43421305435456875 -0.6059703435515732
5715000000.0 -0.44601637364483604 -0.6018424035188811
5717500000.0 -0.4576541162871663 -0.5974419612572215
5720000000.0 -0.46912024085474047 -0.5927774902877968
5722500000.0 -0.4804092563710702 -0.5878578080669868
5725000000.0 -0.4915162829126236 -0.5826920188032214
5727500000.0 -0.5024371037041769 -0.5772894461291136
5730000000.0 -0.5131682072302789 -0.5716595570122324
5732500000.0 -0.5237068181071136 -0.5658118784855461
5735000000.0 -0.5340509157049291 -0.5597559089418847
5737500000.0 -0.5441992397765567 -0.5535010258633766
5740000000.0 -0.5541512826277268 -0.5470563919437905
5742500000.0 -0.5639072676533232 -0.5404308616083224
5745000000.0 -0.5734681143552823 -0.5336328899406442
5747500000.0 -0.5828353902468574 -0.5266704459911881
5750000000.0 -0.5920112503281998 -0.519550932364885
5752500000.0 -0.6009983650853805 -0.5122811128721438
5755000000.0 -0.6097998382130088 -0.5048670498765172
5757500000.0 -0.6184191154855143 -0.4973140527888694
5760000000.0 -0.6268598863997135 -0.48962663894447156
5762500000.0 -0.6351259803771856 -0.48180850786046303
5765000000.0 -0.6432212594469939 -0.4738625296105821
5767500000.0 -0.6511495094238591 -0.46579074777700497
5770000000.0 -0.6589143316527059 -0.45759439715054095
5772500000.0 -0.6665190374059337 -0.44927393605520277
5775000000.0 -0.6739665469940047 -0.4408290928773349
5777500000.0 -0.6812592955831513 -0.43225892608803484
5780000000.0 -0.6883991476068669 -0.423561896766104
5782500000.0 -0.695387321511343 -0.4147359523631607
5785000000.0 -0.7022243263918863 -0.40577862020729355
5787500000.0 -0.7089099118596456 -0.39668710902271137
5790000000.0 -0.7154430322297082 -0.3874584165544015
5792500000.0 -0.7218218258467919 -0.37808944123321786
5795000000.0 -0.728043610067847 -0.3685770957024151
5797500000.0 -0.7341048921078062 -0.3589184199537328
5800000000.0 -0.7400013956306878 -0.3491106917930635
5802500000.0 -0.7457281026399324 -0.339151532373631
5805000000.0 -0.7512793098957175 -0.32903900459922475
5807500000.0 -0.7566486987694018 -0.31877170231183244
5810000000.0 -0.7618294171434767 -0.308348828334916
5812500000.0 -0.7668141716854351 -0.29777025964441833
5815000000.0 -0.7715953285725554 -0.2870365981807134
5817500000.0 -0.7761650205274362 -0.2761492060920121
5820000000.0 -0.7805152578463118 -0.26511022450904836
5822500000.0 -0.7846380409686605 -0.25392257528541384
5825000000.0 -0.7885254720506369 -0.24258994549233082
5827500000.0 -0.792169862969452 -0.23111675482369418
5830000000.0 -0.7955638372026981 -0.21950810643919258
5832500000.0 -0.7987004230961211 -0.20776972214398987
5835000000.0 -0.8015731361555127 -0.19590786316384196
5837500000.0 -0.804176048171322 -0.18392923811865067
5840000000.0 -0.8065038412058811 -0.1718409001174485
5842500000.0 -0.8085518447394968 -0.1596501351872339
5845000000.0 -0.8103160545783513 -0.147364344501198
5847500000.0 -0.8117931324693791 -0.1349909230830169
5850000000.0 -0.8129803857392242 -0.12253713782831258
5852500000.0 -0.8138757266695053 -0.11001000779894243
5855000000.0 -0.8144776117326438 -0.09741618980659254
5857500000.0 -0.8147849612340177 -0.08476187230799101
5860000000.0 -0.8147970603304237 -0.0720526805833583
5862500000.0 -0.8145134428142385 -0.05929359606178755
5865000000.0 -0.8139337594601995 -0.04648889249365711
5867500000.0 -0.8130576331201842 -0.033642091450860896
5870000000.0 -0.811884503113742 -0.020755939364041243
5872500000.0 -0.8104134617916876 -0.00783240798432783
5875000000.0 -0.8086430864402547 0.005127280211052287
5877500000.0 -0.8065712699380166 0.018122600559140077
5880000000.0 -0.8041950537711894 0.031153648033825098
5882500000.0 -0.801510467149818 0.044221032163076525
5885000000.0 -0.7985123760430184 0.05732574535333375
5887500000.0 -0.7951943459618652 0.07046900544992757
5890000000.0 -0.7915485222606063 0.08365207388608778
5892500000.0 -0.7875655315983047 0.09687605129637475
5895000000.0 -0.7832344080027919 0.11014165298262199
5897500000.0 -0.7785425467070759 0.12344896711243136
5900000000.0 -0.7734756885865084 0.13679719899182813
5902500000.0 -0.7680179376165162 0.1501844051736949
5905000000.0 -0.7621518132997565 0.16360722153313179
5907500000.0 -0.7558583394850701 0.1770605897491398
5910000000.0 -0.749117170426244 0.19053748687048372
5912500000.0 -0.7419067543162269 0.20402866280472995
5915000000.0 -0.7342045338932096 0.21752239064577797
5917500000.0 -0.7259871830613233 0.23100423474283263
5920000000.0 -0.7172308778138531 0.24445684130967885
5922500000.0 -0.7079115991053813 0.2578597561760759
5925000000.0 -0.6980054647046394 0.2711892739961061
5927500000.0 -0.687489086487099 0.2844183228545373
5930000000.0 -0.676339949108026 0.29751638775902434
5932500000.0 -0.6645368055452584 0.3104494759826001
5935000000.0 -0.652060084627359 0.32318012663769213
5937500000.0 -0.6388923053743867 0.33566746623409355
5940000000.0 -0.6250184927825219 0.3478673113121307
5942500000.0 -0.6104265895827407 0.35973231856462984
5945000000.0 -0.5951078584980337 0.3712121821828421
5947500000.0 -0.5790572696119682 0.3822538774967755
5950000000.0 -0.562273867636959 0.39280194934520746
5952500000.0 -0.5447611141273309 0.4027988430168392
5955000000.0 -0.5265272000093107 0.4121852750638618
5957500000.0 -0.507585324185594 0.42090064081149703
5960000000.0 -0.4879539344044114 0.4288834549778025
5962500000.0 -0.46765692704643835 0.43607182148191037
5965000000.0 -0.4467238029655175 0.44240392825588126
5967500000.0 -0.42518977700644045 0.4478185626841952
5970000000.0 -0.4030958393025852 0.45225564317119504
5972500000.0 -0.380488766918371 0.4556567622732335
5975000000.0 -0.35742108483534596 0.4579657368210073
5977500000.0 -0.33395097568173393 0.45912916048772057
5980000000.0 -0.3101421379679155 0.45909695431970615
5982500000.0 -0.2860635929133175 0.45782291082627286
5985000000.0 -0.2617894402356367 0.45526522731352986
5987500000.0 -0.23739856352425873 0.45138702423209326
5990000000.0 -0.21297428604214938 0.4461568443816001
5992500000.0 -0.18860397800457435 0.43954912886819386
5995000000.0 -0.16437861657642588 0.4315446657388064
5997500000.0 -0.14039230002678477 0.42213100721564084
6000000000.0 -0.11674171769073506 0.41130285142527606
6002500000.0 -0.09352557762687776 0.3990623844620612
6005000000.0 -0.070843994139007 0.3854195785518472
6007500000.0 -0.048797837660477766 0.37039244199749477
6010000000.0 -0.027488049892960116 0.35400721650606554
6012500000.0 -0.007014927553288293 0.3362985174333476
6015000000.0 0.01252262138214844 0.31730941245260325
6017500000.0 0.031027844434213983 0.29709143418188255
6020000000.0 0.04840692919497234 0.2757045224084177
6022500000.0 0.06456979978723776 0.2532168917530031
6025000000.0 0.07943091848007423 0.22970482094332922
6027500000.0 0.09291008490071972 0.20525236033371114
6030000000.0 0.1049332244447897 0.17995095493921592
6032500000.0 0.1154331566705061 0.1538989810575783
6035000000.0 0.12435033370200836 0.127201195544139
6037500000.0 0.13163353800119168 0.09996809798516082
6040000000.0 0.13724052833828568 0.0723152073786724
6042500000.0 0.14113862244133807 0.04436225646769443
6045000000.0 0.1433052046773738 0.01623230855265083
6047500000.0 0.14372814725302274 -0.011949196592229674
6050000000.0 0.142406133855821 -0.04005545920450424
6052500000.0 0.13934887541759414 -0.0679593880392492
6055000000.0 0.13457720878676754 -0.0955347086654632
6057500000.0 0.12812307055424488 -0.12265709758644729
6060000000.0 0.1200293400803599 -0.14920532665883252
6062500000.0 0.11034954789627462 -0.1750624009788676
6065000000.0 0.0991474480634917 -0.20011667242043515
6067500000.0 0.08649645571658796 -0.22426291040932128
6070000000.0 0.07247895381770765 -0.24740331135697113
6072500000.0 0.057185476035595414 -0.2694484284940766
6075000000.0 0.040713775537006135 -0.29031800466137714
6077500000.0 0.02316779224610003 -0.30994169193840587
6080000000.0 0.004656533691433332 -0.3282596438015358
6082500000.0 -0.014707113175503666 -0.3452229677646112
6085000000.0 -0.034807619927769526 -0.36079402911102887
6087500000.0 -0.05552808369455952 -0.3749465992987602
6090000000.0 -0.07675150169291284 -0.38766584582116737
6092500000.0 -0.09836203132637122 -0.3989481636337416
6095000000.0 -0.12024621413772321 -0.4088008516049689
6097500000.0 -0.14229414268527582 -0.4172416407105349
6100000000.0 -0.16440055072613055 -0.42429808376090883
6102500000.0 -0.1864658088880378 -0.43000681924065043
6105000000.0 -0.2083968102250858 -0.4344127242625153
6107500000.0 -0.23010773260268133 -0.43756797363836686
6110000000.0 -0.25152066765512865 -0.43953102359779767
6112500000.0 -0.2725661090095953 -0.44036553971913045
6115000000.0 -0.2931832954825229 -0.4401392891727694
6117500000.0 -0.3133204079376854 -0.43892301742617396
6120000000.0 -0.3329346213699408 -0.43678932915355895
6122500000.0 -0.35199201647600775 -0.43381159227452154
6125000000.0 -0.37046735743508913 -0.43006288286684147
6127500000.0 -0.3883437448079511 -0.4256149872189698
6130000000.0 -0.40561215434196607 -0.42053747556880555
6132500000.0 -0.4222708740282223 -0.4148968601791184
6135000000.0 -0.4383248529912929 -0.4087558483843912
6137500000.0 -0.453784976708973 -0.4021726991626534
6140000000.0 -0.4686672836733866 -0.39520068968520344
6142500000.0 -0.4829921389367229 -0.38788769621626223
6145000000.0 -0.4967833800568005 -0.3802758917049714
6147500000.0 -0.5100674507963265 -0.3724015604575338
6150000000.0 -0.5228725375574643 -0.36429502841549116
6152500000.0 -0.5352277229738699 -0.3559807058094271
6155000000.0 -0.5471621703553923 -0.3474772373132452
6157500000.0 -0.5587043518015146 -0.3387977532996921
6160000000.0 -0.5698813317839136 -0.3299502143957174
6162500000.0 -0.580718116854523 -0.32093784026303096
6165000000.0 -0.5912370808737849 -0.3117596123895309
6167500000.0 -0.6014574737810665 -0.3024108396793255
6170000000.0 -0.611395020453064 -0.2928837747832006
6172500000.0 -0.6210616146263416 -0.28316826842909515
6175000000.0 -0.630465111207411 -0.2732524485084008
6177500000.0 -0.6396092185732802 -0.2631234103634698
6180000000.0 -0.6484934906966056 -0.25276790461932314
6182500000.0 -0.6571134171346649 -0.24217300902378333
6185000000.0 -0.665460607130336 -0.23132677111443384
6187500000.0 -0.673523062316572 -0.220218809127135
6190000000.0 -0.6812855308306326 -0.20884085940047853
6192500000.0 -0.6887299340678373 -0.19718725960910174
6195000000.0 -0.6958358558760482 -0.18525535846533253
6197500000.0 -0.7025810827492932 -0.17304584404295692
6200000000.0 -0.7089421825574067 -0.16056298457306253
6202500000.0 -0.7148951085789705 -0.14781477740500198
6205000000.0 -0.7204158151124065 -0.1348130037760377
6207500000.0 -0.7254808707413598 -0.12157318904526623
6210000000.0 -0.7300680554355742 -0.10811447007386021
6212500000.0 -0.7341569280752195 -0.09445937342353118
6215000000.0 -0.737729351687714 -0.08063350995100023
6217500000.0 -0.7407699646610502 -0.06666519315143236
6220000000.0 -0.7432665874217494 -0.05258499020660502
6222500000.0 -0.7452105555050722 -0.038425216089479394
6225000000.0 -0.7465969715620329 -0.024219382235918314
6227500000.0 -0.7474248706008525 -0.010001612198608128
6230000000.0 -0.747697294606286 0.004193962667542376
