! Created with skrf 1.8.0 (http://scikit-rf.org).
# Hz S RI R 50.0 
!freq ReS11 ImS11
5300000000.0 0.4575888530862139 -0.10764119300356693
5302500000.0 0.45460926366331006 -0.10715656959332884
5305000000.0 0.45166318408265 -0.10624670869143578
5307500000.0 0.4487795403425068 -0.10491766166372792
5310000000.0 0.4459864689070494 -0.10317601530534723
5312500000.0 0.44331171289750954 -0.10102885535347954
5315000000.0 0.4407829948312089 -0.09848386763282284
5317500000.0 0.438428330328459 -0.09554956403211336
5320000000.0 0.43627625190591873 -0.09223561225236693
5322500000.0 0.4343559184521074 -0.08855324149218306
5325000000.0 0.43269709381153626 -0.08451569129588271
5327500000.0 0.4313299865982182 -0.0801386679294974
5330000000.0 0.43028495239056835 -0.07544077198443366
5332500000.0 0.4295920682953463 -0.07044386242995579
5335000000.0 0.4292805979980877 -0.06517332590802145
5337500000.0 0.42937837238388976 -0.05965822543733233
5340000000.0 0.42991111623459966 -0.05393130951823412
5342500000.0 0.43090175510644996 -0.048028870480054844
5345000000.0 0.4323697380974797 -0.041990449312086016
5347500000.0 0.43433041178281956 -0.03585839267332249
5350000000.0 0.4367944782015343 -0.029677275800971226
5352500000.0 0.4397675656115014 -0.02349321219046222
5355000000.0 0.44324993507069993 -0.01735307682457938
5357500000.0 0.44723633911540134 -0.011303674096311082
5360000000.0 0.45171604129594856 -0.005390884209968205
5362500000.0 0.45667299752991614 0.0003411773262845798
5365000000.0 0.4620861925681691 0.005850953465390711
5367500000.0 0.4679301177389971 0.011100161628822203
5370000000.0 0.47417536988940445 0.016054405050695553
5372500000.0 0.48078934636639964 0.02068365786852968
5375000000.0 0.48773700718465335 0.02496260857630737
5377500000.0 0.4949816733422101 0.028870853207907967
5380000000.0 0.5024858296210849 0.0323929365620624
5382500000.0 0.5102119011169824 0.035518246567397715
5385000000.0 0.5181229750798085 0.03824077319266832
5387500000.0 0.526183443249372 0.04055874884455532
5390000000.0 0.534359544519134 0.042474191722601806
5392500000.0 0.5426197931932352 0.04399237693297106
5395000000.0 0.5509352840282091 0.045121262177931984
5397500000.0 0.5592798713634729 0.04587089548110627
5400000000.0 0.5676302256374324 0.04625283169280095
5402500000.0 0.5759657761639482 0.046279582524940605
5405000000.0 0.5842685539414371 0.04596412173297297
5407500000.0 0.5925229522576462 0.045319462989348025
5410000000.0 0.6007154257642018 0.04435832321930955
5412500000.0 0.6088341504124963 0.043092878966322544
5415000000.0 0.6168686671195556 0.041534618007548055
5417500000.0 0.6248095312889496 0.039694283236350936
5420000000.0 0.6326479884326761 0.03758190103931673
5422500000.0 0.6403756932694463 0.0352068822597146
5425000000.0 0.6479844860056025 0.03257818055458787
5427500000.0 0.6554662352674095 0.02970449066237119
5430000000.0 0.6628127526007257 0.02659446788632838
5432500000.0 0.6700157788465899 0.02325694998929063
5435000000.0 0.6770670382939311 0.01970116364793666
5437500000.0 0.6839583525368248 0.015936899536442457
5440000000.0 0.6906818026251276 0.011974642855352819
5442500000.0 0.6972299255542385 0.007825649509482481
5445000000.0 0.703595929502233 0.0035019619571783163
5447500000.0 0.7097739115503556 -0.0009836372244307902
5450000000.0 0.71575906191911 -0.005617732018035176
5452500000.0 0.7215478399697057 -0.010386434101318886
5455000000.0 0.7271381092625231 -0.015275589354454585
5457500000.0 0.7325292216924429 -0.02027101798060479
5460000000.0 0.7377220439626595 -0.02535877456014683
5462500000.0 0.7427189232180925 -0.03052541328339823
5465000000.0 0.7475235923270805 -0.035758243414424455
5467500000.0 0.752141018865227 -0.041045560720814306
5470000000.0 0.756577205117259 -0.04637684210201548
5472500000.0 0.7608389491921105 -0.051742892859331514
5475000000.0 0.7649335794946985 -0.057135938832347084
5477500000.0 0.7688686762048114 -0.0625496588084563
5480000000.0 0.7726517940146674 -0.06797915600432114
5482500000.0 0.7762902001532711 -0.07342087082173118
5485000000.0 0.7797906407082551 -0.07887244030122621
5487500000.0 0.7831591465183565 -0.08433251255490817
5490000000.0 0.7864008875662656 -0.08980052679993357
5492500000.0 0.7895200819980257 -0.09527647131484931
5495000000.0 0.7925199627997535 -0.10076063261913329
5497500000.0 0.7954028019559622 -0.106253349392811
5500000000.0 0.7981699887789006 -0.11175478411197808
5502500000.0 0.8008221562085244 -0.11726472412371759
5505000000.0 0.8033593463945348 -0.1227824220058765
5507500000.0 0.8057812049149131 -0.12830648267053335
5510000000.0 0.8080871916570893 -0.13383480191800423
5512500000.0 0.8102767957494279 -0.13936455819089016
5515000000.0 0.8123497420033101 -0.1448922562818616
5517500000.0 0.8143061770922501 -0.15041381888177494
5520000000.0 0.8161468250990167 -0.1559247192716066
5522500000.0 0.8178731040150434 -0.1614201463003769
5525000000.0 0.8194871971613381 -0.16689519116430998
5527500000.0 0.820992076176408 -0.17234504449024646
5530000000.0 0.8223914750315343 -0.17776519187540607
5532500000.0 0.8236898173276586 -0.18315159635435221
5535000000.0 0.8248921017459508 -0.18850085722374296
5537500000.0 0.8260037528221399 -0.19381033619277777
5540000000.0 0.8270304460693012 -0.19907824384601858
5542500000.0 0.8279779177879877 -0.2043036817853253
5545000000.0 0.8288517706111223 -0.20948663841865853
5547500000.0 0.8296572859040076 -0.21462793903595365
5550000000.0 0.8303992535832809 -0.21972915340442467
5552500000.0 0.8310818287746131 -0.22479246648254142
5555000000.0 0.8317084230714921 -0.2298205198644893
5557500000.0 0.8322816360885317 -0.23481623311755664
5560000000.0 0.8328032306456007 -0.23978261518423583
5562500000.0 0.8332741524108239 -0.24472257644166484
5565000000.0 0.8336945923142942 -0.2496387518291441
5567500000.0 0.8340640876609894 -0.25453334469041666
5570000000.0 0.8343816557519247 -0.2594079996831309
5572500000.0 0.8346459520809681 -0.26426371136381444
5575000000.0 0.8348554439021487 -0.2691007729672845
5577500000.0 0.8350085892226166 -0.2739187675854139
5580000000.0 0.8351040111030529 -0.27871660154387395
5582500000.0 0.8351406575424108 -0.2834925774116402
5585000000.0 0.8351179381578395 -0.2882445018873081
5587500000.0 0.8350358302851892 -0.2929698219085783
5590000000.0 0.8348949489360485 -0.29766578082846
5592500000.0 0.834696577148789 -0.30232958547317884
5595000000.0 0.8344426555430506 -0.3069585743948674
5597500000.0 0.8341357322010343 -0.31155037767903127
5600000000.0 0.8337788762248994 -0.316103059254973
5602500000.0 0.8333755603337173 -0.32061523374790907
5605000000.0 0.832929519554842 -0.32508615143877473
5607500000.0 0.8324445943413062 -0.3295157467716729
5610000000.0 0.831924567241258 -0.33390464796038566
5612500000.0 0.8313730025173324 -0.3382541474739193
5615000000.0 0.8307930978532858 -0.3425661353993897
5617500000.0 0.8301875565119219 -0.3468429997643187
5620000000.0 0.8295584870711566 -0.35108749973367137
5622500000.0 0.8289073362382213 -0.35530261907879734
5625000000.0 0.8282348583207447 -0.3594914083665958
5627500000.0 0.8275411228287884 -0.36365682488273565
5630000000.0 0.8268255595134653 -0.3678015793557929
5632500000.0 0.8260870380376442 -0.37192799809196514
5635000000.0 0.8253239775398977 -0.37603790819267213
5637500000.0 0.824534479700596 -0.3801325521668516
5640000000.0 0.8237164776387198 -0.38421253654562415
5642500000.0 0.8228678921277135 -0.3882778171568435
5645000000.0 0.8219867862621736 -0.39232772163180263
5647500000.0 0.821071509850484 -0.39636100761265175
5650000000.0 0.8201208254407643 -0.4003759531246076
5652500000.0 0.8191340089702578 -0.40437047378272134
5655000000.0 0.8181109194989024 -0.408342260017703
5657500000.0 0.8170520342622555 -0.4122889264107268
5660000000.0 0.8159584472566612 -0.41620816458241866
5662500000.0 0.8148318316390465 -0.4200978909208144
5665000000.0 0.8136743682686304 -0.42395638076424697
5667500000.0 0.8124886446236004 -0.42778238145719527
5670000000.0 0.8112775299855022 -0.4315751979240543
5672500000.0 0.8100440341055107 -0.435334745986592
5675000000.0 0.8087911574762053 -0.4390615704958316
5677500000.0 0.8075217417801837 -0.44275682735328536
5680000000.0 0.8062383290490911 -0.44642223054630115
5682500000.0 0.80494303754696 -0.4500599673022776
5685000000.0 0.8036374614211166 -0.4536725862651402
5687500000.0 0.8023225997984614 -0.45726286511403724
5690000000.0 0.8009988193227546 -0.4608336651945083
5692500000.0 0.7996658522252 -0.4643877814524661
5695000000.0 0.7983228300038443 -0.46792779621252567
5697500000.0 0.7969683507702872 -0.47145594511149735
5700000000.0 0.7956005764182257 -0.47497400279937296
5702500000.0 0.7942173540835402 -0.47848319489422403
5705000000.0 0.7928163549939181 -0.4819841411875617
5707500000.0 0.7913952228235782 -0.4854768333267868
5710000000.0 0.789951723130079 -0.48896064825045654
5712500000.0 0.7884838853854932 -0.492434396629059
5715000000.0 0.7869901295270305 -0.4958964035820607
5717500000.0 0.7854693698200478 -0.49934461711163336
5720000000.0 0.783921090101211 -0.502776738117504
5722500000.0 0.7823453860809364 -0.5061903646244681
5725000000.0 0.7807429722426127 -0.5095831420339124
5727500000.0 0.7791151528778186 -0.5129529108508634
5730000000.0 0.7774637588299554 -0.5162978434597337
5732500000.0 0.7757910534689818 -0.5196165621202476
5735000000.0 0.7740996131771117 -0.5229082313978595
5737500000.0 0.7723921890898527 -0.5261726196730648
5740000000.0 0.7706715579244635 -0.5294101261123478
5742500000.0 0.7689403703763247 -0.5326217714328403
5745000000.0 0.7672010057343759 -0.535809152843954
5747500000.0 0.7654554410480771 -0.5389743655867839
5750000000.0 0.7637051423868063 -0.5421198954006603
5752500000.0 0.7619509845107598 -0.5452484879178956
5755000000.0 0.7601932036877046 -0.5483630023270745
5757500000.0 0.7584313865302924 -0.5514662575754635
5760000000.0 0.7566644956974133 -0.554560879848391
5762500000.0 0.7548909312140926 -0.5576491600391545
5765000000.0 0.7531086241343654 -0.5607329294066405
5767500000.0 0.7513151574150504 -0.5638134606356486
5770000000.0 0.749507907290037 -0.5668914001195782
5772500000.0 0.747684197224842 -0.5699667355524608
5775000000.0 0.7458414557599377 -0.5730388009420465
5777500000.0 0.7439773692647561 -0.5761063190467945
5780000000.0 0.74209002084218 -0.5791674791143365
5782500000.0 0.740178007337652 -0.5822200457759819
5785000000.0 0.738240527581827 -0.5852614931457574
5787500000.0 0.7362774365694945 -0.5882891566864322
5790000000.0 0.7342892621656207 -0.5913003943256392
5792500000.0 0.7322771830286424 -0.5942927476975761
5795000000.0 0.7302429686357838 -0.5972640942886465
5797500000.0 0.7281888844620442 -0.6002127816902149
5800000000.0 0.7261175673811949 -0.6031377360896725
5802500000.0 0.7240318781077049 -0.6060385385156323
5805000000.0 0.7219347388810107 -0.6089154641209432
5807500000.0 0.7198289655255864 -0.6117694818423671
5810000000.0 0.7177171034438188 -0.6146022140053132
5812500000.0 0.7156012769841761 -0.6174158577210476
5815000000.0 0.7134830609751012 -0.6202130721244652
5817500000.0 0.7113633820560027 -0.622996837496636
5820000000.0 0.7092424558310366 -0.6257702939931596
5822500000.0 0.707119763904173 -0.6285365689582942
5825000000.0 0.7049940726327032 -0.6312986025699976
5827500000.0 0.7028634930827707 -0.6340589817833946
5830000000.0 0.7007255793158488 -0.6368197922009445
5832500000.0 0.6985774599117942 -0.6395824966083096
5835000000.0 0.6964159956686562 -0.6423478475192064
5837500000.0 0.6942379548259969 -0.6451158392411236
5840000000.0 0.6920401960314139 -0.6478857028041437
5842500000.0 0.6898198486795067 -0.6506559447035977
5845000000.0 0.6875744802400853 -0.6534244279249315
5847500000.0 0.6853022407676923 -0.6561884912839838
5850000000.0 0.6830019759249845 -0.6589451008655256
5852500000.0 0.680673301503693 -0.6616910254071444
5855000000.0 0.678316634504538 -0.6644230259690769
5857500000.0 0.6759331782322782 -0.6671380492460975
5860000000.0 0.6735248614444057 -0.6698334134803625
5862500000.0 0.671094234219179 -0.6725069761577633
5865000000.0 0.6686443257328107 -0.675157273513791
5867500000.0 0.6661784714112806 -0.677783623302417
5870000000.0 0.663700118815521 -0.6803861842229311
5872500000.0 0.6612126230145304 -0.6829659677547439
5875000000.0 0.6587190430103793 -0.6855248007929363
5877500000.0 0.6562219509448202 -0.6880652402627986
5880000000.0 0.6537232653173206 -0.6905904436644823
5882500000.0 0.6512241182947189 -0.6931040021011362
5885000000.0 0.6487247654457691 -0.6956097446245693
5887500000.0 0.6462245439773127 -0.6981115245561935
5890000000.0 0.6437218829004496 -0.7006129996953464
5892500000.0 0.6412143656567788 -0.7031174189300217
5895000000.0 0.6386988427453585 -0.7056274276695099
5897500000.0 0.6361715889769594 -0.7081449037151608
5900000000.0 0.6336284973092848 -0.7106708337052853
5902500000.0 0.6310652989408613 -0.7132052381811671
5905000000.0 0.6284777975987347 -0.7157471507277204
5907500000.0 0.6258621048567488 -0.7182946536782829
5910000000.0 0.6232148629436101 -0.7208449696965004
5912500000.0 0.6205334418823748 -0.7233946053328094
5915000000.0 0.6178160989429681 -0.7259395395787025
5917500000.0 0.6150620902421295 -0.7284754476858384
5920000000.0 0.6122717268050463 -0.7309979482435086
5922500000.0 0.6094463703865401 -0.7335028598582897
5925000000.0 0.6065883676815266 -0.735986452865135
5927500000.0 0.6037009250553182 -0.7384456813915392
5930000000.0 0.6007879293993267 -0.7408783818250616
5932500000.0 0.597853723968484 -0.7432834252811277
5935000000.0 0.5949028508912215 -0.7456608139677807
5937500000.0 0.5919397742874338 -0.7480117142869492
5940000000.0 0.5889685994398449 -0.7503384229477426
5942500000.0 0.5859928041324228 -0.7526442661141929
5945000000.0 0.5830149980341095 -0.7549334354623479
5947500000.0 0.5800367248554321 -0.757210768763021
5950000000.0 0.5770583199790438 -0.7594814860205878
5952500000.0 0.5740788334537892 -0.7617508950814592
5955000000.0 0.5710960247826923 -0.7640240827998085
5957500000.0 0.5681064320058307 -0.766305609168879
5960000000.0 0.5651055133880668 -0.7685992221948679
5962500000.0 0.5620878557977104 -0.7709076106575024
5965000000.0 0.5590474398426729 -0.7732322102728739
5967500000.0 0.5559779482480222 -0.775573076210463
5970000000.0 0.5528731010283298 -0.7779288315324573
5972500000.0 0.5497269989162061 -0.7802966970824758
5975000000.0 0.5465344554003275 -0.7826726038583239
5977500000.0 0.5432912976988952 -0.7850513841964758
5980000000.0 0.5399946180872757 -0.7874270334322934
5982500000.0 0.536642959190777 -0.7897930293446358
5985000000.0 0.5332364200618586 -0.7921426929041654
5987500000.0 0.529776673941853 -0.7944695708577081
5990000000.0 0.5262668933620032 -0.7967678186971968
5992500000.0 0.5227115834225338 -0.7990325617327235
5995000000.0 0.5191163294218003 -0.8012602124076472
5997500000.0 0.5154874701914266 -0.803448723684496
6000000000.0 0.5118317132243358 -0.8055977612463825
6002500000.0 0.5081557116715146 -0.8077087812805478
6005000000.0 0.5044656262727867 -0.8097850055507244
6007500000.0 0.5007666970657118 -0.8118312910753602
6010000000.0 0.4970628501370058 -0.8138538977135408
6012500000.0 0.4933563636656285 -0.8158601629916988
6015000000.0 0.48964761505912985 -0.8178580992388738
6017500000.0 0.4859349271892951 -0.8198559331983206
6020000000.0 0.48221452675302257 -0.8218616124344724
6022500000.0 0.47848062185594387 -0.8238823057843033
6025000000.0 0.47472559933665087 -0.8259239265975256
6027500000.0 0.4709403354628775 -0.8279907074288306
6030000000.0 0.4671146068119987 -0.830084853127435
6032500000.0 0.46323758178139723 -0.8322062959417402
6035000000.0 0.4592983676359524 -0.8343525714365826
6037500000.0 0.455286583636832 -0.8365188279103218
6040000000.0 0.4511929279058114 -0.8386979748814071
6042500000.0 0.4470097044948781 -0.8408809684400623
6045000000.0 0.4427312778007793 -0.8430572232348044
6047500000.0 0.4383544240440834 -0.8452151330244855
6050000000.0 0.43387855397392655 -0.8473426745267475
6052500000.0 0.42930578710829725 -0.8494280631744351
6055000000.0 0.42464086541623447 -0.8514604247574202
6057500000.0 0.4198909030359805 -0.8534304441226994
6060000000.0 0.41506497796346387 -0.8553309513888225
6062500000.0 0.4101735811369879 -0.8571574076554127
6065000000.0 0.4052279474486201 -0.8589082559872852
6067500000.0 0.4002393013855497 -0.8605851094277824
6070000000.0 0.3952180567255121 -0.8621927557189472
6072500000.0 0.3901730145151455 -0.8637389679231015
6075000000.0 0.3851106060746033 -0.8652341207880573
6077500000.0 0.380034227731198 -0.8666906239253176
6080000000.0 0.3749437112614612 -0.8681221940666656
6082500000.0 0.36983496862987825 -0.8695429991930659
6085000000.0 0.364699841719874 -0.8709667165613263
6087500000.0 0.35952617767030215 -0.8724055540033081
6090000000.0 0.35429813860364123 -0.873869288828846
6092500000.0 0.34899674152129206 -0.8753643808222052
6095000000.0 0.3436006105973674 -0.8768932149058836
6097500000.0 0.33808691073805813 -0.8784535249266756
6100000000.0 0.3324324188311864 -0.8800380427289973
6102500000.0 0.3266146783281897 -0.8816344064180573
6105000000.0 0.3206131743754932 -0.8832253488466251
6107500000.0 0.31441046126647293 -0.8847891724099461
6110000000.0 0.30799317202728943 -0.886300499876516
6112500000.0 0.3013528418433661 -0.8877312740152787
6115000000.0 0.2944864829615025 -0.8890519620951889
6117500000.0 0.28739685864713144 -0.8902329058791985
6120000000.0 0.2800924174934303 -0.8912457444707732
6122500000.0 0.2725868663968216 -0.8920648272123893
6125000000.0 0.2648983801343439 -0.892668527597623
6127500000.0 0.2570484668010191 -0.8930403674991355
6130000000.0 0.24906053032101452 -0.8931698643813807
6132500000.0 0.24095819265152274 -0.8930530227513589
6135000000.0 0.23276345791662625 -0.8926924048109849
6137500000.0 0.2244948173256965 -0.8920967337215719
6140000000.0 0.21616540622702804 -0.8912800053957415
6142500000.0 0.2077813320668421 -0.8902601103559435
6145000000.0 0.1993402936387843 -0.8890569947856629
6147500000.0 0.19083060735961532 -0.8876904181386024
6150000000.0 0.18223074523423977 -0.8861773921621694
6152500000.0 0.17350947182520055 -0.8845294115148704
6155000000.0 0.16462664436604252 -0.8827496079389527
6157500000.0 0.1555347118836148 -0.8808299769202088
6160000000.0 0.1461809168005383 -0.8787488368072456
6162500000.0 0.136510167175635 -0.8764686845448277
6165000000.0 0.1264685108946154 -0.8739346087931337
6167500000.0 0.11600710629008669 -0.8710734098007179
6170000000.0 0.10508654852191877 -0.8677935558003658
6172500000.0 0.0936813793493434 -0.8639860780451626
6175000000.0 0.0817845814879039 -0.8595264713988287
6177500000.0 0.06941183936432682 -0.8542776255370416
6180000000.0 0.056605337458563734 -0.8480937646424211
6182500000.0 0.04343686704356636 -0.8408253227748496
6185000000.0 0.030010023145499484 -0.832324630107903
6187500000.0 0.01646129660657966 -0.8224522345709795
6190000000.0 0.0029599012624790476 -0.8110836370399748
6192500000.0 -0.010293777288139506 -0.7981161791139301
6195000000.0 -0.023071168606480397 -0.7834757936450188
6197500000.0 -0.03511993370646588 -0.7671233121469815
6200000000.0 -0.04616973657293685 -0.7490600219769142
6202500000.0 -0.05593922845943874 -0.7293321808893899
6205000000.0 -0.06414403779112578 -0.7080342272837462
6207500000.0 -0.07050550138372706 -0.6853104701493608
6210000000.0 -0.0747598268650621 -0.6613551011874342
6212500000.0 -0.07666734462146507 -0.6364104397039838
6215000000.0 -0.07602149227189532 -0.6107633947657182
6217500000.0 -0.07265717641917391 -0.5847402045445109
6220000000.0 -0.06645817485062477 -0.5586995855188426
6222500000.0 -0.0573632759425043 -0.5330244903978915
6225000000.0 -0.04537089832809105 -0.5081127301374926
6227500000.0 -0.0305419898663994 -0.4843667599931357
6230000000.0 -0.013001067268441283 -0.46218296098085626
6232500000.0 0.007064676855234523 -0.44194076615053385
6235000000.0 0.02940820716387615 -0.42399198629870505
6237500000.0 0.05372736315189768 -0.40865068333761845
6240000000.0 0.07967134563397515 -0.3961839229861971
6242500000.0 0.10684880184609241 -0.3868037132832763
6245000000.0 0.1348372893536223 -0.38066040297585274
