! Created with skrf 1.8.0 (http://scikit-rf.org).
# Hz S RI R 100.0 
!freq ReS11 ImS11 ReS21 ImS21 ReS12 ImS12 ReS22 ImS22
5300000000.0 -0.09732110161356111 0.4632359282706423 -0.6831521888851041 0.08091286917114107 -0.6831521888851041 0.08091286917114107 -0.09732110161356111 0.4632359282706423
5302500000.0 -0.09673121755239729 0.46083693871446485 -0.6837990478438909 0.08382399172456244 -0.6837990478438909 0.08382399172456244 -0.09673121755239729 0.46083693871446485
5305000000.0 -0.09615686292829125 0.45842524795256423 -0.6844319391664709 0.08675071440308028 -0.6844319391664709 0.08675071440308028 -0.09615686292829125 0.45842524795256423
5307500000.0 -0.09559846819929184 0.45600089647860814 -0.685050432224513 0.08969308581442297 -0.685050432224513 0.08969308581442297 -0.09559846819929184 0.45600089647860814
5310000000.0 -0.0950564626977787 0.4535639418665942 -0.6856540937585872 0.09265113757400542 -0.6856540937585872 0.09265113757400542 -0.0950564626977787 0.4535639418665942
5312500000.0 -0.09453127402443648 0.4511144584685451 -0.6862424885445433 0.09562488446056595 -0.6862424885445433 0.09562488446056595 -0.09453127402443648 0.4511144584685451
5315000000.0 -0.09402332746551852 0.44865253709872893 -0.6868151800400667 0.09861432459087184 -0.6868151800400667 0.09861432459087184 -0.09402332746551852 0.44865253709872893
5317500000.0 -0.09353304543319023 0.44617828470544657 -0.687371731011235 0.10161943961223273 -0.687371731011235 0.10161943961223273 -0.09353304543319023 0.44617828470544657
5320000000.0 -0.09306084692866884 0.4436918240315147 -0.6879117041391998 0.10464019491184692 -0.6879117041391998 0.10464019491184692 -0.09306084692866884 0.4436918240315147
5322500000.0 -0.09260714702806223 0.44119329326431667 -0.688434662606803 0.10767653984185178 -0.688434662606803 0.10767653984185178 -0.09260714702806223 0.44119329326431667
5325000000.0 -0.09217235639050014 0.4386828456765553 -0.6889401706653457 0.11072840795904836 -0.6889401706653457 0.11072840795904836 -0.09217235639050014 0.4386828456765553
5327500000.0 -0.09175688078836561 0.4361606492585054 -0.6894277941813821 0.113795717278353 -0.6894277941813821 0.113795717278353 -0.09175688078836561 0.4361606492585054
5330000000.0 -0.09136112065929176 0.43362688634276264 -0.6898971011637832 0.11687837053891129 -0.6898971011637832 0.11687837053891129 -0.09136112065929176 0.43362688634276264
5332500000.0 -0.09098547067962497 0.4310817532223035 -0.6903476622710605 0.11997625548204488 -0.6903476622710605 0.11997625548204488 -0.09098547067962497 0.4310817532223035
5335000000.0 -0.09063031935899264 0.42852545976269507 -0.6907790512991523 0.12308924514001983 -0.6907790512991523 0.12308924514001983 -0.09063031935899264 0.42852545976269507
5337500000.0 -0.09029604865560811 0.42595822900927993 -0.6911908456498397 0.12621719813483573 -0.6911908456498397 0.12621719813483573 -0.09029604865560811 0.42595822900927993
5340000000.0 -0.08998303361205695 0.42338029679007133 -0.6915826267799038 0.1293599589861511 -0.6915826267799038 0.1293599589861511 -0.08998303361205695 0.42338029679007133
5342500000.0 -0.08969164201101697 0.42079191131507504 -0.6919539806312931 0.13251735842749848 -0.6919539806312931 0.13251735842749848 -0.08969164201101697 0.42079191131507504
5345000000.0 -0.08942223405067047 0.4181933327728053 -0.6923044980425025 0.13568921373008305 -0.6923044980425025 0.13568921373008305 -0.08942223405067047 0.4181933327728053
5347500000.0 -0.08917516203934915 0.41558483292456766 -0.6926337751413562 0.13887532903328995 -0.6926337751413562 0.13887532903328995 -0.08917516203934915 0.41558483292456766
5350000000.0 -0.0889507701090038 0.4129666946972538 -0.6929414137195262 0.142075495681265 -0.6929414137195262 0.142075495681265 -0.0889507701090038 0.4129666946972538
5352500000.0 -0.08874939394711569 0.41033921177513905 -0.6932270215889671 0.1452894925648054 -0.6932270215889671 0.1452894925648054 -0.08874939394711569 0.41033921177513905
5355000000.0 -0.08857136054659356 0.40770268819138 -0.6934902129206063 0.1485170864679048 -0.6934902129206063 0.1485170864679048 -0.08857136054659356 0.40770268819138
5357500000.0 -0.08841698797327431 0.4050574379196616 -0.6937306085655565 0.15175803241828723 -0.6937306085655565 0.15175803241828723 -0.08841698797327431 0.4050574379196616
5360000000.0 -0.08828658515056095 0.4024037844665901 -0.6939478363591473 0.15501207404132858 -0.6939478363591473 0.15501207404132858 -0.08828658515056095 0.4024037844665901
5362500000.0 -0.08818045166079592 0.3997420604652737 -0.6941415314081022 0.1582789439167374 -0.6941415314081022 0.1582789439167374 -0.08818045166079592 0.3997420604652737
5365000000.0 -0.08809887756292335 0.3970726072706122 -0.6943113363611633 0.16155836393742587 -0.6943113363611633 0.16155836393742587 -0.08809887756292335 0.3970726072706122
5367500000.0 -0.08804214322599273 0.3943957745566999 -0.694456901663529 0.16485004567006556 -0.694456901663529 0.16485004567006556 -0.08804214322599273 0.3943957745566999
5370000000.0 -0.08801051917809334 0.39171191991677407 -0.6945778857953708 0.16815369071672706 -0.6945778857953708 0.16815369071672706 -0.08801051917809334 0.39171191991677407
5372500000.0 -0.08800426597026999 0.3890214084661136 -0.6946739554948524 0.17146899107717484 -0.6946739554948524 0.17146899107717484 -0.08800426597026999 0.3890214084661136
5375000000.0 -0.08802363405496459 0.38632461244824556 -0.6947447859659331 0.17479562951129723 -0.6947447859659331 0.17479562951129723 -0.08802363405496459 0.38632461244824556
5377500000.0 -0.08806886367860182 0.3836219108448324 -0.6947900610713359 0.17813327990123837 -0.6947900610713359 0.17813327990123837 -0.08806886367860182 0.3836219108448324
5380000000.0 -0.08814018478779588 0.38091368898953903 -0.6948094735110462 0.18148160761277368 -0.6948094735110462 0.18148160761277368 -0.08814018478779588 0.38091368898953903
5382500000.0 -0.08823781694887359 0.37820033818621185 -0.6948027249866451 0.1848402698555571 -0.6948027249866451 0.1848402698555571 -0.08823781694887359 0.37820033818621185
5385000000.0 -0.08836196928012967 0.3754822553316303 -0.6947695263519094 0.18820891604182655 -0.6947695263519094 0.18820891604182655 -0.08836196928012967 0.3754822553316303
5387500000.0 -0.08851284039653853 0.3727598425431457 -0.6947095977499828 0.19158718814319192 -0.6947095977499828 0.19158718814319192 -0.08851284039653853 0.3727598425431457
5390000000.0 -0.08869061836639065 0.3700335067913723 -0.6946226687374991 0.19497472104517208 -0.6946226687374991 0.19497472104517208 -0.08869061836639065 0.3700335067913723
5392500000.0 -0.0888954806795019 0.36730365953826494 -0.6945084783960352 0.1983711428991544 -0.6945084783960352 0.1983711428991544 -0.0888954806795019 0.36730365953826494
5395000000.0 -0.08912759422654228 0.3645707163806964 -0.6943667754312263 0.20177607547144458 -0.6943667754312263 0.20177607547144458 -0.08912759422654228 0.3645707163806964
5397500000.0 -0.08938711528909184 0.3618350966997925 -0.6941973182599226 0.20518913448915485 -0.6941973182599226 0.20518913448915485 -0.08938711528909184 0.3618350966997925
5400000000.0 -0.08967418954002047 0.3590972233161782 -0.6939998750857597 0.2086099299825872 -0.6939998750857597 0.2086099299825872 -0.08967418954002047 0.3590972233161782
5402500000.0 -0.08998895205379673 0.3563575221512894 -0.6937742239634567 0.21203806662395777 -0.6937742239634567 0.21203806662395777 -0.08998895205379673 0.3563575221512894
5405000000.0 -0.0903315273263195 0.3536164218949294 -0.6935201528522744 0.21547314406209084 -0.6935201528522744 0.21547314406209084 -0.0903315273263195 0.3536164218949294
5407500000.0 -0.09070202930389054 0.3508743536791441 -0.693237459658887 0.21891475725300605 -0.693237459658887 0.21891475725300605 -0.09070202930389054 0.3508743536791441
5410000000.0 -0.09110056142096026 0.3481317507585986 -0.6929259522701248 0.22236249678605502 -0.6929259522701248 0.22236249678605502 -0.09110056142096026 0.3481317507585986
5412500000.0 -0.09152721664625552 0.34538904819750915 -0.6925854485758501 0.22581594920551512 -0.6925854485758501 0.22581594920551512 -0.09152721664625552 0.34538904819750915
5415000000.0 -0.09198207753692657 0.34264668256324393 -0.6922157764823603 0.22927469732738295 -0.6922157764823603 0.22927469732738295 -0.09198207753692657 0.34264668256324393
5417500000.0 -0.09246521630036467 0.33990509162666804 -0.6918167739166537 0.23273832055128607 -0.6918167739166537 0.23273832055128607 -0.09246521630036467 0.33990509162666804
5420000000.0 -0.09297669486331238 0.3371647140692933 -0.6913882888218704 0.23620639516727734 -0.6913882888218704 0.23620639516727734 -0.09297669486331238 0.3371647140692933
5422500000.0 -0.09351656494794976 0.33442598919728833 -0.6909301791442591 0.23967849465744093 -0.6909301791442591 0.23967849465744093 -0.09351656494794976 0.33442598919728833
5425000000.0 -0.09408486815458228 0.3316893566623958 -0.6904423128120097 0.24315418999215033 -0.6904423128120097 0.24315418999215033 -0.09408486815458228 0.3316893566623958
5427500000.0 -0.09468163605063593 0.3289552561897998 -0.6899245677062471 0.2466330499208748 -0.6899245677062471 0.2466330499208748 -0.09468163605063593 0.3289552561897998
5430000000.0 -0.09530689026560736 0.32622412731292927 -0.6893768316245144 0.250114641257433 -0.6893768316245144 0.250114641257433 -0.09530689026560736 0.32622412731292927
5432500000.0 -0.09596064259164452 0.32349640911527233 -0.6887990022370942 0.25359852915961123 -0.6887990022370942 0.25359852915961123 -0.09596064259164452 0.32349640911527233
5435000000.0 -0.0966428950894878 0.32077253997913113 -0.6881909870363947 0.25708427740305645 -0.6881909870363947 0.25708427740305645 -0.0966428950894878 0.32077253997913113
5437500000.0 -0.09735364019942884 0.31805295734139377 -0.6875527032797916 0.26057144864937326 -0.6875527032797916 0.26057144864937326 -0.09735364019942884 0.31805295734139377
5440000000.0 -0.09809286085700232 0.31533809745623315 -0.6868840779261708 0.26405960470839673 -0.6868840779261708 0.26405960470839673 -0.09809286085700232 0.31533809745623315
5442500000.0 -0.09886053061314785 0.31262839516479274 -0.6861850475664741 0.26754830679454117 -0.6861850475664741 0.26754830679454117 -0.09886053061314785 0.31262839516479274
5445000000.0 -0.09965661375851156 0.30992428367173364 -0.6854555583485317 0.2710371157772376 -0.6854555583485317 0.2710371157772376 -0.09965661375851156 0.30992428367173364
5447500000.0 -0.10048106545167308 0.30722619432872933 -0.6846955658964722 0.2745255924253925 -0.6846955658964722 0.2745255924253925 -0.10048106545167308 0.30722619432872933
5450000000.0 -0.10133383185098666 0.30453455642474864 -0.6839050352249679 0.2780132976458602 -0.6839050352249679 0.2780132976458602 -0.10133383185098666 0.30453455642474864
5452500000.0 -0.10221485024980097 0.301849796983179 -0.6830839406485975 0.281499792715911 -0.6830839406485975 0.281499792715911 -0.10221485024980097 0.301849796983179
5455000000.0 -0.10312404921480876 0.29917234056565667 -0.6822322656865655 0.2849846395097006 -0.6822322656865655 0.2849846395097006 -0.10312404921480876 0.29917234056565667
5457500000.0 -0.10406134872727665 0.2965026090826161 -0.6813500029630659 0.28846740071870886 -0.6813500029630659 0.28846740071870886 -0.10406134872727665 0.2965026090826161
5460000000.0 -0.105026660326908 0.29384102161043285 -0.6804371541035031 0.29194764006619556 -0.6804371541035031 0.29194764006619556 -0.105026660326908 0.29384102161043285
5462500000.0 -0.10601988725814881 0.2911879942151544 -0.6794937296268488 0.29542492251565144 -0.6794937296268488 0.29542492251565144 -0.10601988725814881 0.2911879942151544
5465000000.0 -0.10704092461866807 0.2885439397826863 -0.6785197488343357 0.29889881447329647 -0.6785197488343357 0.29889881447329647 -0.10704092461866807 0.2885439397826863
5467500000.0 -0.10808965950984033 0.28590926785540643 -0.6775152396947492 0.30236888398461204 -0.6775152396947492 0.30236888398461204 -0.10808965950984033 0.28590926785540643
5470000000.0 -0.10916597118899025 0.28328438447509685 -0.6764802387265167 0.3058347009249836 -0.6764802387265167 0.3058347009249836 -0.10916597118899025 0.28328438447509685
5472500000.0 -0.11026973122322814 0.28066969203212105 -0.6754147908768404 0.30929583718444376 -0.6754147908768404 0.30929583718444376 -0.11026973122322814 0.28066969203212105
5475000000.0 -0.11140080364466554 0.2780655891207643 -0.6743189493980497 0.31275186684660733 -0.6743189493980497 0.31275186684660733 -0.11140080364466554 0.2780655891207643
5477500000.0 -0.11255904510682899 0.2754724704006416 -0.6731927757214126 0.3162023663617832 -0.6731927757214126 0.3162023663617832 -0.11255904510682899 0.2754724704006416
5480000000.0 -0.11374430504208985 0.27289072646407453 -0.6720363393285903 0.31964691471437795 -0.6720363393285903 0.31964691471437795 -0.11374430504208985 0.27289072646407453
5482500000.0 -0.11495642581996549 0.2703207437093535 -0.6708497176209194 0.3230850935845939 -0.6708497176209194 0.3230850935845939 -0.11495642581996549 0.2703207437093535
5485000000.0 -0.11619524290606528 0.26776290421978916 -0.6696329957867443 0.3265164875045105 -0.6696329957867443 0.3265164875045105 -0.11619524290606528 0.26776290421978916
5487500000.0 -0.11746058502158788 0.2652175856484305 -0.6683862666669208 0.3299406840085965 -0.6683862666669208 0.3299406840085965 -0.11746058502158788 0.2652175856484305
5490000000.0 -0.11875227430317904 0.26268516110839396 -0.6671096306187476 0.33335727377871976 -0.6671096306187476 0.33335727377871976 -0.11875227430317904 0.26268516110839396
5492500000.0 -0.12007012646300523 0.2601659990686499 -0.6658031953784229 0.3367658507837238 -0.6658031953784229 0.3367658507837238 -0.12007012646300523 0.2601659990686499
5495000000.0 -0.12141395094891722 0.25766046325518854 -0.6644670759222251 0.340166012413657 -0.6644670759222251 0.340166012413657 -0.12141395094891722 0.25766046325518854
5497500000.0 -0.12278355110454871 0.2551689125574828 -0.6631013943265824 0.34355735960868544 -0.6631013943265824 0.34355735960868544 -0.12278355110454871 0.2551689125574828
5500000000.0 -0.12417872432924165 0.25269170094006616 -0.6617062796271651 0.346939496982826 -0.6617062796271651 0.346939496982826 -0.12417872432924165 0.25269170094006616
5502500000.0 -0.12559926223765458 0.2502291773592336 -0.6602818676771628 0.3503120329425144 -0.6602818676771628 0.3503120329425144 -0.12559926223765458 0.2502291773592336
5505000000.0 -0.12704495081894865 0.24778168568463918 -0.6588283010048788 0.35367457980013517 -0.6588283010048788 0.35367457980013517 -0.12704495081894865 0.24778168568463918
5507500000.0 -0.12851557059543398 0.24534956462575874 -0.6573457286707854 0.35702675388258975 -0.6573457286707854 0.35702675388258975 -0.12851557059543398 0.24534956462575874
5510000000.0 -0.13001089678056973 0.24293314766309734 -0.6558343061241794 0.36036817563494145 -0.6558343061241794 0.36036817563494145 -0.13001089678056973 0.24293314766309734
5512500000.0 -0.13153069943621837 0.24053276298399345 -0.6542941950595375 0.363698469719296 -0.6542941950595375 0.363698469719296 -0.13153069943621837 0.24053276298399345
5515000000.0 -0.1330747436290442 0.23814873342297282 -0.6527255632727356 0.3670172651089292 -0.6527255632727356 0.3670172651089292 -0.1330747436290442 0.23814873342297282
5517500000.0 -0.13464278958599055 0.23578137640648747 -0.6511285845172059 0.3703241951778063 -0.6511285845172059 0.3703241951778063 -0.13464278958599055 0.23578137640648747
5520000000.0 -0.13623459284870904 0.2334310039019471 -0.6495034383601669 0.3736188977855578 -0.6495034383601669 0.3736188977855578 -0.13623459284870904 0.2334310039019471
5522500000.0 -0.13784990442690026 0.23109792237097382 -0.6478503100390401 0.3769010153579815 -0.6478503100390401 0.3769010153579815 -0.13784990442690026 0.23109792237097382
5525000000.0 -0.13948847095046282 0.22878243272671467 -0.6461693903181361 0.3801701949632086 -0.6461693903181361 0.3801701949632086 -0.13948847095046282 0.22878243272671467
5527500000.0 -0.14115003482036664 0.22648483029512895 -0.6444608753457175 0.3834260883835745 -0.6444608753457175 0.3834260883835745 -0.14115003482036664 0.22648483029512895
5530000000.0 -0.14283433435822063 0.22420540478016057 -0.6427249665115438 0.3866683521833117 -0.6427249665115438 0.3866683521833117 -0.14283433435822063 0.22420540478016057
5532500000.0 -0.1445411039544262 0.2219444402326516 -0.6409618703049533 0.3898966477721733 -0.6409618703049533 0.3898966477721733 -0.1445411039544262 0.2219444402326516
5535000000.0 -0.14627007421488197 0.21970221502293855 -0.6391717981736261 0.39311064146501273 -0.6391717981736261 0.39311064146501273 -0.14627007421488197 0.21970221502293855
5537500000.0 -0.14802097210617635 0.217479001816978 -0.6373549663830312 0.39631000453749654 -0.6373549663830312 0.39631000453749654 -0.14802097210617635 0.217479001816978
5540000000.0 -0.14979352109920363 0.2152750675559376 -0.6355115958767132 0.39949441327797125 -0.6355115958767132 0.39949441327797125 -0.14979352109920363 0.2152750675559376
5542500000.0 -0.15158744131117072 0.21309067343912735 -0.6336419121374339 0.40266354903561574 -0.6336419121374339 0.40266354903561574 -0.15158744131117072 0.21309067343912735
5545000000.0 -0.15340244964594624 0.2109260749101732 -0.6317461450492609 0.40581709826496054 -0.6317461450492609 0.40581709826496054 -0.15340244964594624 0.2109260749101732
5547500000.0 -0.15523825993268558 0.2087815216463502 -0.6298245287606773 0.4089547525668448 -0.6298245287606773 0.4089547525668448 -0.15523825993268558 0.2087815216463502
5550000000.0 -0.15709458306272756 0.20665725755094516 -0.6278773015487532 0.41207620872593237 -0.6278773015487532 0.41207620872593237 -0.15709458306272756 0.20665725755094516
5552500000.0 -0.15897112712470532 0.2045535207485719 -0.6259047056844466 0.4151811687448669 -0.6259047056844466 0.4151811687448669 -0.15897112712470532 0.2045535207485719
5555000000.0 -0.16086759753783406 0.2024705435833566 -0.6239069872991019 0.4182693398751246 -0.6239069872991019 0.4182693398751246 -0.16086759753783406 0.2024705435833566
5557500000.0 -0.16278369718337063 0.2004085526198497 -0.6218843962521663 0.4213404346447092 -0.6218843962521663 0.4213404346447092 -0.16278369718337063 0.2004085526198497
5560000000.0 -0.16471912653418894 0.198367768646625 -0.6198371860002075 0.4243941708827183 -0.6198371860002075 0.4243941708827183 -0.16471912653418894 0.198367768646625
5562500000.0 -0.16667358378246191 0.19634840668244563 -0.6177656134672546 0.4274302717409148 -0.6177656134672546 0.4274302717409148 -0.16667358378246191 0.19634840668244563
5565000000.0 -0.1686467649654389 0.19435067598489525 -0.6156699389164976 0.4304484657123687 -0.6156699389164976 0.4304484657123687 -0.1686467649654389 0.19435067598489525
5567500000.0 -0.17063836408926708 0.19237478006142417 -0.6135504258234283 0.4334484866472387 -0.6135504258234283 0.4334484866472387 -0.17063836408926708 0.19237478006142417
5570000000.0 -0.1726480732508836 0.19042091668267558 -0.6114073407503883 0.43643007376582027 -0.6114073407503883 0.43643007376582027 -0.1726480732508836 0.19042091668267558
5572500000.0 -0.17467558275792341 0.1884892778980467 -0.6092409532226333 0.43939297166889313 -0.6092409532226333 0.43939297166889313 -0.17467558275792341 0.1884892778980467
5575000000.0 -0.17672058124666198 0.1865800500533684 -0.6070515356058822 0.442336930345498 -0.6070515356058822 0.442336930345498 -0.17672058124666198 0.1865800500533684
5577500000.0 -0.1787827557979681 0.18469341381064117 -0.6048393629854135 0.4452617051781924 -0.6048393629854135 0.4452617051781924 -0.1787827557979681 0.18469341381064117
5580000000.0 -0.18086179205126074 0.18282954416974032 -0.6026047130467344 0.44816705694586045 -0.6026047130467344 0.44816705694586045 -0.18086179205126074 0.18282954416974032
5582500000.0 -0.18295737431647416 0.18098861049199735 -0.6003478659578152 0.45105275182420285 -0.6003478659578152 0.45105275182420285 -0.18295737431647416 0.18098861049199735
5585000000.0 -0.1850691856840141 0.17917077652560578 -0.5980691042529565 0.4539185613839147 -0.5980691042529565 0.4539185613839147 -0.1850691856840141 0.17917077652560578
