! Created with skrf 1.8.0 (http://scikit-rf.org).
# Hz S RI R 100.0 
!freq ReS11 ImS11
5300000000.0 -0.042585102812191813 0.8070985485176569
5302500000.0 -0.039185849830705506 0.8055999074040125
5305000000.0 -0.0357906265438658 0.8040647112643768
5307500000.0 -0.032399845723709256 0.8024935307046984
5310000000.0 -0.02901387306040121 0.8008869294542862
5312500000.0 -0.025633028613827734 0.7992454618934898
5315000000.0 -0.02225758835450151 0.7975696707013916
5317500000.0 -0.018887785786528867 0.7958600846247943
5320000000.0 -0.01552381364563055 0.7941172163694811
5322500000.0 -0.012165825665391025 0.7923415606142021
5325000000.0 -0.008813938404732791 0.7905335921478646
5327500000.0 -0.0054682331302887185 0.7886937641299286
5330000000.0 -0.0021287577470194235 0.7868225064737461
5332500000.0 0.0012044712292701464 0.7849202243523751
5335000000.0 0.004531466663487631 0.782987296826276
5337500000.0 0.007852268763030842 0.7810240755917758
5340000000.0 0.011166943015570358 0.7790308838492365
5342500000.0 0.01447557810831144 0.7770080152895872
5345000000.0 0.017778283834467813 0.7749557331975676
5347500000.0 0.021075188991952074 0.7728742696700359
5350000000.0 0.024366439279495295 0.7707638249473133
5352500000.0 0.027652195195093345 0.7686245668556271
5355000000.0 0.03093262994144375 0.7664566303582958
5357500000.0 0.03420792734288756 0.7642601172133505
5360000000.0 0.037478279778241086 0.762035095735102
5362500000.0 0.04074388613352217 0.7597816006569529
5365000000.0 0.04400494977865129 0.7574996330928709
5367500000.0 0.047261676571778044 0.755189160594558
5370000000.0 0.050514272894797596 0.7528501173014712
5372500000.0 0.053762943723439344 0.7504824041806726
5375000000.0 0.057007890735075555 0.7480858893534623
5377500000.0 0.06024931045725652 0.7456604085056182
5380000000.0 0.06348739245971764 0.7432057653781537
5382500000.0 0.06672231759252825 0.7407217323352191
5385000000.0 0.06995425627277053 0.7382080510060107
5387500000.0 0.07318336682198158 0.7356644329973259
5390000000.0 0.0764097938564946 0.7330905606734902
5392500000.0 0.07963366673246967 0.7304860880002494
5395000000.0 0.08285509804746441 0.7278506414493836
5397500000.0 0.0860741822000082 0.7251838209606557
5400000000.0 0.08929099400859039 0.7224852009577654
5402500000.0 0.09250558739136351 0.719754331414983
5405000000.0 0.09571799410754839 0.7169907389712112
5407500000.0 0.09892822256156897 0.7141939280881581
5410000000.0 0.10213625667060655 0.7113633822493403
5412500000.0 0.10534205479629033 0.7084985651968357
5415000000.0 0.10854554874101721 0.7055989222024787
5417500000.0 0.11174664280921383 0.7026638813704261
5420000000.0 0.11494521293389097 0.6996928549680452
5422500000.0 0.11814110586849041 0.6966852407820386
5425000000.0 0.12133413844415013 0.6936404234968979
5427500000.0 0.12452409689219505 0.6905577760927145
5430000000.0 0.12771073623165027 0.6874366612595513
5432500000.0 0.1308937797214935 0.6842764328255503
5435000000.0 0.13407291837718774 0.6810764371960957
5437500000.0 0.1372478105509974 0.6778360148013431
5440000000.0 0.14041808157548083 0.6745545015495982
5442500000.0 0.14358332346950822 0.6712312302839525
5445000000.0 0.14674309470595714 0.6678655322398607
5447500000.0 0.14989692004035332 0.6644567385011916
5450000000.0 0.15304429039947118 0.6610041814525904
5452500000.0 0.15618466282895802 0.6575071962258376
5455000000.0 0.1593174604989199 0.6539651221381996
5457500000.0 0.162442072766423 0.6503773041206259
5460000000.0 0.16555785529372444 0.6467430941339137
5462500000.0 0.16866413022106672 0.6430618525709154
5465000000.0 0.17176018639279367 0.6393329496429632
5467500000.0 0.17484527963554286 0.635555766748861
5470000000.0 0.17791863308715253 0.6317296978246849
5472500000.0 0.18097943757499163 0.6278541506729359
5475000000.0 0.18402685204233254 0.6239285482694471
5477500000.0 0.18706000402135975 0.6199523300467062
5480000000.0 0.19007799015140736 0.6159249531521986
5482500000.0 0.19307987674100985 0.6118458936805026
5485000000.0 0.1960647003722737 0.6077146478779663
5487500000.0 0.19903146854616727 0.6035307333188137
5490000000.0 0.2019791603672073 0.5992936900516118
5492500000.0 0.2049067272660906 0.5950030817151384
5495000000.0 0.20781309375879647 0.5906584966226661
5497500000.0 0.21069715824063986 0.5862595488139236
5500000000.0 0.213557793813842 0.5818058790737426
5502500000.0 0.21639384914709023 0.5772971559168608
5505000000.0 0.21920414936564164 0.5727330765380646
5507500000.0 0.22198749697048722 0.5681133677270919
5510000000.0 0.22474267278511223 0.5634377867477789
5512500000.0 0.22746843692840585 0.558706122180863
5515000000.0 0.23016352981226265 0.5539181947300541
5517500000.0 0.2328266731624755 0.5490738579909423
5520000000.0 0.23545657106146844 0.5441729991823677
5522500000.0 0.2380519110114759 0.5392155398400154
5525000000.0 0.2406113650168197 0.53420143647187
5527500000.0 0.24313359068384743 0.5291306811754237
5530000000.0 0.24561723233722982 0.5240033022163784
5532500000.0 0.2480609221512723 0.5188193645687353
5535000000.0 0.2504632812949014 0.5135789704162129
5537500000.0 0.25282292108908555 0.5082822596148576
5540000000.0 0.25513844417532366 0.502929410116914
5542500000.0 0.2574084456940458 0.4975206383558924
5545000000.0 0.2596315144716164 0.4920561995929124
5547500000.0 0.2618062342147563 0.4865363882244129
5550000000.0 0.2639311847111818 0.4809615380512985
5552500000.0 0.2660049430353051 0.4753320225096744
5555000000.0 0.26802608475779705 0.4696482548633447
5557500000.0 0.2699931851579458 0.4639106883582275
5560000000.0 0.2719048204376467 0.45811981633894966
5562500000.0 0.2737595689359587 0.45227617232779294
5565000000.0 0.27555601234317456 0.44638033006630196
5567500000.0 0.2772927369133134 0.4404329035198216
5570000000.0 0.2789683346740523 0.4344345468452339
5572500000.0 0.2805814046330719 0.4283859543222694
5575000000.0 0.28213055397982195 0.4222878602486752
5577500000.0 0.283614399281765 0.4161410387996182
5580000000.0 0.28503156767412163 0.4099463038517263
5582500000.0 0.2863806980422076 0.40370450877209213
5585000000.0 0.2876604421954631 0.3974165461727089
5587500000.0 0.2888694660322508 0.3910833476307159
5590000000.0 0.2900064506945877 0.38470588337489553
5592500000.0 0.29107009371193315 0.3782851619388963
5595000000.0 0.2920591101332088 0.3718222297815881
5597500000.0 0.29297223364622815 0.3653181708751
5600000000.0 0.29380821768372545 0.3587741062609354
5602500000.0 0.2945658365152234 0.35219119357474665
5605000000.0 0.2952438863239397 0.3455706265402274
5607500000.0 0.29584118626800543 0.3389136344326545
5610000000.0 0.29635657952524413 0.33222148151263436
5612500000.0 0.29678893432080383 0.32549546643055555
5615000000.0 0.2971371449369151 0.3187369216023371
5617500000.0 0.2974001327041191 0.31194721255702923
5620000000.0 0.29757684697325065 0.3051277372568226
5622500000.0 0.29766626606755175 0.2982799253900607
5625000000.0 0.297667398214247 0.2914052376378855
5627500000.0 0.29757928245495757 0.2845051649150409
5630000000.0 0.2974009895343421 0.2775812275855396
5632500000.0 0.29713162276635124 0.27063497465375247
5635000000.0 0.2967703188775224 0.2636679829315746
5637500000.0 0.296316248826722 0.2566818561823399
5640000000.0 0.2957686186007961 0.2496782242420815
5642500000.0 0.295126669985574 0.24265874211886937
5645000000.0 0.29438968131169024 0.2356250890708363
5647500000.0 0.29355696817471527 0.2285789676636055
5650000000.0 0.29262788412909196 0.22152210280784565
5652500000.0 0.2916018213553903 0.2144562407775637
5655000000.0 0.2904782113004063 0.20738314820997047
5657500000.0 0.289256525289641 0.20030461108753125
5660000000.0 0.2879362751117328 0.19322243370299508
5662500000.0 0.28651701357439835 0.18613843760814985
5665000000.0 0.28499833503148997 0.1790544605469964
5667500000.0 0.28337987588074026 0.17197235537418987
5670000000.0 0.2816613150318575 0.1648939889594426
5672500000.0 0.2798423743445667 0.15782124107869083
5675000000.0 0.2779228190362843 0.1507560032928664
5677500000.0 0.27590245805906166 0.14370017781497735
5680000000.0 0.27378114444551704 0.1366556763664087
5682500000.0 0.2715587756234424 0.12962441902318111
5685000000.0 0.2692352936988045 0.12260833305301838
5687500000.0 0.26681068570689764 0.11560935174410991
5690000000.0 0.26428498383139787 0.10862941322631467
5692500000.0 0.2616582655910998 0.10167045928573777
5695000000.0 0.25893065399412957 0.0947344341735295
5697500000.0 0.25610231765946273 0.08782328340970899
5700000000.0 0.2531734709055907 0.08093895258300263
5702500000.0 0.2501443738061749 0.0740833861474575
5705000000.0 0.2470153322125882 0.06725852621679647
5707500000.0 0.24378669774325698 0.06046631135740679
5710000000.0 0.24045886773969022 0.053708675380804094
5712500000.0 0.2370322851891996 0.0469875461365582
5715000000.0 0.2335074386142345 0.04030484430652942
5717500000.0 0.22988486192834154 0.033662482201339605
5720000000.0 0.22616513425879659 0.027062362560062673
5722500000.0 0.22234887973589904 0.02050637735392842
5725000000.0 0.2184367672490402 0.013996406595117753
5727500000.0 0.21442951016962467 0.0075343171514389755
5730000000.0 0.21032786604094347 0.0011219615678947192
5732500000.0 0.20613263623518283 -0.0052388231039315865
5735000000.0 0.20184466557769498 -0.011546216467811628
5737500000.0 0.19746484193875988 -0.017798415935099107
5740000000.0 0.1929940957930355 -0.023993637866418522
5742500000.0 0.18843339974695475 -0.03013011870183655
5745000000.0 0.18378376803436128 -0.03620611607858579
5747500000.0 0.17904625598064164 -0.042219909935487035
5750000000.0 0.17422195943574262 -0.04816980360307725
5752500000.0 0.169312014176375 -0.054054124878595775
5755000000.0 0.16431759527781223 -0.05987122708492303
5757500000.0 0.15923991645571656 -0.06561949011252421
5760000000.0 0.15408022937837654 -0.07129732144360355
5762500000.0 0.14883982294988352 -0.07690315715750645
5765000000.0 0.14352002256469043 -0.08243546291656269
5767500000.0 0.1381221893340907 -0.08789273493151047
5770000000.0 0.13264771928519004 -0.09327350090561021
5772500000.0 0.12709804253289697 -0.09857632095669282
5775000000.0 0.12147462242555726 -0.10379978851628716
5777500000.0 0.11577895466488912 -0.10894253120499865
5780000000.0 0.11001256640079364 -0.11400321168344175
5782500000.0 0.10417701530181835 -0.11898052847785436
5785000000.0 0.09827388860189144 -0.12387321677973065
5787500000.0 0.09230480212409545 -0.12868004921870363
5790000000.0 0.08627139928225401 -0.13339983660794197
5792500000.0 0.08017535006105383 -0.1380314286614444
5795000000.0 0.0740183499755574 -0.14257371468247768
5797500000.0 0.06780211901089535 -0.1470256242225706
5800000000.0 0.06152840054298608 -0.1513861277104317
5802500000.0 0.05519896024119487 -0.15565423705014736
5805000000.0 0.04881558495373871 -0.15982900618816528
5807500000.0 0.042380081576832776 -0.16390953164842448
5810000000.0 0.03589427590845105 -0.1678949530351922
5812500000.0 0.0293600114876487 -0.1717844535030603
5815000000.0 0.022779148420463916 -0.1755772601936397
5817500000.0 0.016153562193294817 -0.17927264463855497
5820000000.0 0.009485142474843515 -0.18286992312827052
5822500000.0 0.002775791907561404 -0.18636845704642074
5825000000.0 -0.003972575110350176 -0.18976765316927566
5827500000.0 -0.010758033651299577 -0.19306696393001818
5830000000.0 -0.01757864949207016 -0.19626588764757194
5832500000.0 -0.02443248035382222 -0.19936396871970108
5835000000.0 -0.03131757714733055 -0.20236079778017882
5837500000.0 -0.03823198522236707 -0.20525601181985378
5840000000.0 -0.04517374562008535 -0.2080492942714142
5842500000.0 -0.0521408963273819 -0.21074037505778787
5845000000.0 -0.05913147353210202 -0.21332903060405747
5847500000.0 -0.06614351287794289 -0.21581508381285128
5850000000.0 -0.07317505071803848 -0.21819840400320628
5852500000.0 -0.08022412536600125 -0.22047890681290452
5855000000.0 -0.08728877834340498 -0.22265655406435148
5857500000.0 -0.0943670556225498 -0.2247313535940936
5860000000.0 -0.10145700886337283 -0.226703359046078
5862500000.0 -0.10855669664346977 -0.2285726696288387
5865000000.0 -0.1156641856800435 -0.23033942983679878
5867500000.0 -0.12277755204273078 -0.2320038291359099
5870000000.0 -0.12989488235620575 -0.23356610161391536
5872500000.0 -0.1370142749914323 -0.23502652559552387
5875000000.0 -0.14413384124456155 -0.23638542322282077
5877500000.0 -0.15125170650232442 -0.23764316000132676
5880000000.0 -0.15836601139292167 -0.23880014431205487
5882500000.0 -0.16547491292135302 -0.2398568268900541
5885000000.0 -0.1725765855881028 -0.24081370026986418
5887500000.0 -0.1796692224902577 -0.24167129819842761
5890000000.0 -0.18675103640394336 -0.24243019501596946
5892500000.0 -0.19382026084718304 -0.24309100500542355
5895000000.0 -0.20087515112217094 -0.24365438171099169
5897500000.0 -0.20791398533597094 -0.2441210172264984
5900000000.0 -0.214935065398797 -0.24449164145415503
5902500000.0 -0.22193671799885953 -0.2447670213344688
5905000000.0 -0.22891729555296902 -0.2449479600479844
5907500000.0 -0.23587517713198886 -0.24503529618962214
5910000000.0 -0.2428087693602728 -0.24502990291637736
5912500000.0 -0.24971650728830275 -0.24493268706919588
5915000000.0 -0.2565968552377287 -0.24474458826983253
5917500000.0 -0.2634483076179648 -0.24446657799356816
5920000000.0 -0.27026938971371284 -0.24409965861864008
5922500000.0 -0.2770586584425698 -0.24364486245330844
5925000000.0 -0.283814703082118 -0.2431032507414628
5927500000.0 -0.29053614596579996 -0.24247591264771665
5930000000.0 -0.29722164314690114 -0.24176396422297333
5932500000.0 -0.3038698850301216 -0.24096854735141943
5935000000.0 -0.31047959697006183 -0.2400908286799827
5937500000.0 -0.31704953983615297 -0.2391319985312432
5940000000.0 -0.3235785105434786 -0.23809326980087028
5942500000.0 -0.3300653425489851 -0.2369758768406216
5945000000.0 -0.3365089063126951 -0.23578107432797532
5947500000.0 -0.3429081097234033 -0.2345101361235084
5950000000.0 -0.34926189848856115 -0.23316435411707484
5952500000.0 -0.35556925648795606 -0.23174503706393756
5955000000.0 -0.3618292060908243 -0.23025350941196374
5957500000.0 -0.3680408084361895 -0.22869111012100996
5960000000.0 -0.37420316367609074 -0.22705919147566062
5962500000.0 -0.38031541118153556 -0.2253591178924465
5965000000.0 -0.38637672971098 -0.2235922647227359
5967500000.0 -0.3923863375411301 -0.2217600170524424
5970000000.0 -0.3983434925600516 -0.219863768499736
5972500000.0 -0.40424749232237694 -0.2179049200119379
5975000000.0 -0.41009767406667713 -0.21588487866277412
5977500000.0 -0.4158934146949142 -0.21380505645118217
5980000000.0 -0.4216341307139939 -0.21166686910286084
5982500000.0 -0.4273192781395317 -0.2094717348757624
5985000000.0 -0.43294835236186746 -0.2072210733706902
5987500000.0 -0.4385208879744537 -0.2049163043482364
5990000000.0 -0.4440364585648476 -0.2025588465532164
5992500000.0 -0.449494676468397 -0.20015011654780981
5995000000.0 -0.45489519248496 -0.1976915275545895
5997500000.0 -0.4602376955588422 -0.19518448831060345
6000000000.0 -0.4655219124222977 -0.19263040193373884
6002500000.0 -0.4707476072029281 -0.19003066480247557
6005000000.0 -0.4759145809953224 -0.18738666545025429
6007500000.0 -0.4810226713973929 -0.1846997834755901
6010000000.0 -0.4860717520118125 -0.181971388469086
6012500000.0 -0.4910617319130292 -0.1792028389585155
6015000000.0 -0.49599255508042994 -0.17639548137307362
6017500000.0 -0.5008641997981029 -0.17355064902796433
6020000000.0 -0.5056766780218739 -0.1706696611303928
6022500000.0 -0.5104300347141889 -0.16775382180811016
6025000000.0 -0.5151243471475037 -0.16480441916158067
6027500000.0 -0.5197597241768714 -0.16182272434083486
6030000000.0 -0.5243363054824531 -0.15880999064810755
6032500000.0 -0.5288542607826964 -0.1557674526672783
6035000000.0 -0.5333137890190186 -0.15269632542115355
6037500000.0 -0.5377151175127448 -0.14959780355762947
6040000000.0 -0.5420585010952502 -0.14647306056567766
6042500000.0 -0.5463442212121346 -0.14332324802220867
6045000000.0 -0.5505725850024081 -0.14014949487070244
6047500000.0 -0.5547439243536465 -0.13695290673257848
6050000000.0 -0.5588585949340622 -0.13373456525223493
6052500000.0 -0.5629169752026434 -0.13049552747660462
6055000000.0 -0.566919465398302 -0.12723682527014848
6057500000.0 -0.5708664865092348 -0.12395946476609954
6060000000.0 -0.5747584792235957 -0.12066442585479285
6062500000.0 -0.5785959028626193 -0.1173526617098484
6065000000.0 -0.5823792342975004 -0.11402509835302971
6067500000.0 -0.5861089668511726 -0.11068263425842481
6070000000.0 -0.5897856091863076 -0.10732613999672853
6072500000.0 -0.593409684180849 -0.10395645792027361
6075000000.0 -0.5969817277924094 -0.10057440188941795
6077500000.0 -0.6005022879128906 -0.09718075704094878
6080000000.0 -0.6039719232147975 -0.09377627959900024
6082500000.0 -0.607391201990592 -0.09036169672909915
6085000000.0 -0.6107607009866488 -0.08693770643572417
6087500000.0 -0.6140810042332708 -0.08350497750393611
6090000000.0 -0.6173527018722966 -0.08006414948539291
6092500000.0 -0.6205763889838914 -0.07661583272915409
6095000000.0 -0.6237526644140967 -0.07316060845762647
6097500000.0 -0.6268821296047854 -0.06969902888780992
6100000000.0 -0.6299653874276299 -0.06623161739820152
6102500000.0 -0.6330030410238375 -0.06275886874140653
6105000000.0 -0.6359956926512873 -0.0592812493026402
6107500000.0 -0.638943942540838 -0.055799197404167424
6110000000.0 -0.6418483877635853 -0.05231312365566532
6112500000.0 -0.6447096211107927 -0.04882341135045873
6115000000.0 -0.6475282299883528 -0.04533041690756439
6117500000.0 -0.6503047953275792 -0.04183447035923643
6120000000.0 -0.6530398905141659 -0.038335875883952576
6122500000.0 -0.6557340803372094 -0.034834912384351414
6125000000.0 -0.6583879199601126 -0.031331834109883196
6127500000.0 -0.6610019539153122 -0.02782687132362521
6130000000.0 -0.6635767151247314 -0.024320231012800918
6132500000.0 -0.6661127239478111 -0.020812097642393175
6135000000.0 -0.6686104872591259 -0.017302633951154233
6137500000.0 -0.6710704975574223 -0.01379198178930346
6140000000.0 -0.6734932321080931 -0.010280262997037857
6142500000.0 -0.6758791521209235 -0.006767580322966761
6145000000.0 -0.6782287019651254 -0.003254018381482023
6147500000.0 -0.6805423084234963 0.0002603553520372046
6150000000.0 -0.6828203799876665 0.0037754895093931387
6152500000.0 -0.6850633061962954 0.00729134776226228
6155000000.0 -0.6872714570181304 0.010807907720906784
6157500000.0 -0.6894451822817441 0.01432515980022748
6160000000.0 -0.6915848111538361 0.017843106054766147
6162500000.0 -0.6936906516678465 0.021361758984267946
6165000000.0 -0.6957629903047294 0.024881140311547745
6167500000.0 -0.6978020916275566 0.02840127973443239
6170000000.0 -0.6998081979717096 0.03192221365379989
6172500000.0 -0.7017815291922375 0.03544398387962981
6175000000.0 -0.7037222824701056 0.03896663631726819
6177500000.0 -0.7056306321787498 0.042490219636081086
6180000000.0 -0.7075067298125015 0.04601478392284681
6182500000.0 -0.7093507039783034 0.049540379322279324
6185000000.0 -0.7111626604520588 0.053067054667206175
6187500000.0 -0.7129426823008487 0.05659485610105136
6190000000.0 -0.7146908300723098 0.06012382569528668
6192500000.0 -0.71640714205219 0.06365400006467963
6195000000.0 -0.7180916345910872 0.06718540898330085
6197500000.0 -0.719744302501413 0.07071807400415638
6200000000.0 -0.7213651195252423 0.07425200708572782
6202500000.0 -0.7229540388738085 0.07778720922840464
6205000000.0 -0.724510993839276 0.08132366912420662
6207500000.0 -0.7260358984791246 0.08486136182314477
6210000000.0 -0.7275286483736231 0.08840024741955553
6212500000.0 -0.7289891214564472 0.09194026976207077
6215000000.0 -0.7304171789186397 0.09548135519064621
6217500000.0 -0.7318126661855857 0.09902341130444926
6220000000.0 -0.7331754139670688 0.1025663257642775
6222500000.0 -0.7345052393797488 0.10610996513322196
6225000000.0 -0.7358019471414929 0.10965417375952267
6227500000.0 -0.7370653308370194 0.11319877270545523
6230000000.0 -0.7382951742536629 0.1167435587261518
6232500000.0 -0.7394912527863692 0.12028830330241928
6235000000.0 -0.7406533349104142 0.12383275173142325
