! Created with skrf 1.8.0 (http://scikit-rf.org).
# Hz S RI R 50.0 
!freq ReS11 ImS11
5300000000.0 0.12244666086703344 -0.035868459728183213
5302500000.0 0.12335723103835029 -0.040351454208423405
5305000000.0 0.12397592217068686 -0.045031524654745976
5307500000.0 0.12428807868672105 -0.04989102884939467
5310000000.0 0.12428022715211537 -0.05491137029475063
5312500000.0 0.12394014806877011 -0.0600730863709516
5315000000.0 0.12325693958313294 -0.06535594502014193
5317500000.0 0.12222107165083347 -0.07073904885042596
5320000000.0 0.12082442941428938 -0.07620094528472664
5322500000.0 0.11906034481199522 -0.08171974115904897
5325000000.0 0.11692361573672473 -0.08727322000843112
5327500000.0 0.11441051238380079 -0.0928389601722868
5330000000.0 0.111518770767721 -0.09839445180795862
5332500000.0 0.10824757372397131 -0.1039172109217224
5335000000.0 0.10459752004021743 -0.10938488860970297
5337500000.0 0.10057058266678688 -0.11477537384320106
5340000000.0 0.09617005722887899 -0.12006688832826806
5342500000.0 0.09140050229469172 -0.1252380722104027
5345000000.0 0.08626767303561697 -0.13026805967356261
5347500000.0 0.0807784500426912 -0.13513654378817905
5350000000.0 0.07494076513283889 -0.1398238302845224
5352500000.0 0.06876352598822487 -0.144310880255311
5355000000.0 0.06225654142227261 -0.14857934211303805
5357500000.0 0.05543044895939398 -0.15261157343309592
5360000000.0 0.04829664625601594 -0.1563906535929112
5362500000.0 0.04086722768468247 -0.15990038836166387
5365000000.0 0.03315492715767067 -0.16312530779647066
5367500000.0 0.025173067990661484 -0.16605065895362633
5370000000.0 0.01693552030991709 -0.16866239502282582
5372500000.0 0.008456666198167212 -0.17094716253574663
5375000000.0 -0.0002486275346055217 -0.17289228828726771
5377500000.0 -0.00916502936905064 -0.1744857675386604
5380000000.0 -0.018276756577121703 -0.17571625495101492
5382500000.0 -0.027567583151924563 -0.17657305952703134
5385000000.0 -0.037020843329390506 -0.177046144628188
5387500000.0 -0.04661943203712038 -0.1771261338876379
5390000000.0 -0.056345803730773886 -0.17680432356683187
5392500000.0 -0.06618197115046559 -0.17607270161428565
5395000000.0 -0.07610950554832956 -0.17492397338828816
5397500000.0 -0.08610953990213817 -0.17335159371117506
5400000000.0 -0.0961627765415213 -0.17134980464118688
5402500000.0 -0.10624950047493877 -0.16891367808768307
5405000000.0 -0.11634959952295303 -0.1660391621656357
5407500000.0 -0.12644259214262032 -0.16272312999260988
5410000000.0 -0.1365076635757624 -0.15896342948267328
5412500000.0 -0.146523710680509 -0.15475893259079995
5415000000.0 -0.1564693955181446 -0.1501095824120399
5417500000.0 -0.16632320747689197 -0.14501643654272692
5420000000.0 -0.17606353342940353 -0.13948170516622235
5422500000.0 -0.18566873515117055 -0.13350878243091163
5425000000.0 -0.19511723298112127 -0.12710226983946918
5427500000.0 -0.20438759449123153 -0.1202679905608365
5430000000.0 -0.21345862675575408 -0.11301299380312937
5432500000.0 -0.22230947067778217 -0.10534554863962411
5435000000.0 -0.23091969574539029 -0.09727512695209246
5437500000.0 -0.23926939355370735 -0.08881237543821291
5440000000.0 -0.2473392684435173 -0.07996907691255452
5442500000.0 -0.2551107236706552 -0.07075810140552162
5445000000.0 -0.26256594163062685 -0.061193347822725605
5447500000.0 -0.26968795681594426 -0.05128967716089175
5450000000.0 -0.2764607203741067 -0.041062838478417844
5452500000.0 -0.2828691553554685 -0.0305293889833289
5455000000.0 -0.2888992019855532 -0.01970660972406653
5457500000.0 -0.29453785255717746 -0.008612418445867371
5460000000.0 -0.29977317580629426 0.002734718794021505
5462500000.0 -0.30459433090295884 0.01431587567584522
5465000000.0 -0.30899157144716305 0.026111751817874864
5467500000.0 -0.31295624010055806 0.03810275572026036
5470000000.0 -0.3164807547021383 0.05026908318994416
5472500000.0 -0.319558586902404 0.06259079016376642
5475000000.0 -0.32218423450098094 0.07504785905458476
5477500000.0 -0.32435318878324837 0.08762025797356172
5480000000.0 -0.32606189821913345 0.10028799242410368
5482500000.0 -0.32730772991069135 0.11303114931057431
5485000000.0 -0.32808893015423896 0.12582993335032303
5487500000.0 -0.3284045854191311 0.13866469621328575
5490000000.0 -0.328254584941357 0.15151595893108633
5492500000.0 -0.32763958599014137 0.16436442831172435
5495000000.0 -0.3265609826945434 0.17719100825952475
5497500000.0 -0.3250208791208719 0.1899768070287454
5500000000.0 -0.3230220670770872 0.20270314152944705
5502500000.0 -0.32056800889507264 0.21535153985273184
5505000000.0 -0.31766282521250544 0.22790374318913026
5507500000.0 -0.3143112875516693 0.24034170827804247
5510000000.0 -0.310518815279771 0.2526476114498226
5512500000.0 -0.30629147634135645 0.2648038552083309
5515000000.0 -0.30163599098513605 0.27679307815406884
5517500000.0 -0.29655973756984677 0.2885981688721947
5520000000.0 -0.29107075943203464 0.30020228421146833
5522500000.0 -0.28517777173589315 0.31158887216624764
5525000000.0 -0.2788901672037576 0.32274169935200614
5527500000.0 -0.27221801964679676 0.3336448828418087
5530000000.0 -0.26517208427791783 0.3442829259160602
5532500000.0 -0.257763793891595 0.35464075707655046
5535000000.0 -0.250005250134912 0.36470377149644084
5537500000.0 -0.24190920926626158 0.37445787392663704
5540000000.0 -0.23348906199792685 0.3838895219610403
5542500000.0 -0.22475880723929742 0.3929857684842121
5545000000.0 -0.21573301979233866 0.40173430208737787
5547500000.0 -0.20642681229218598 0.41012348424563505
5550000000.0 -0.19685579192547042 0.41814238210141563
5552500000.0 -0.18703601268935813 0.42578079579604505
5555000000.0 -0.17698392416727174 0.4330292794313464
5557500000.0 -0.16671631798487643 0.43987915492337953
5560000000.0 -0.15625027326591953 0.4463225182259499
5562500000.0 -0.14560310252447467 0.45235223764748034
5565000000.0 -0.13479229950367005 0.4579619442539681
5567500000.0 -0.12383549049622916 0.4631460146358246
5570000000.0 -0.11275039065613002 0.46789954660928007
5572500000.0 -0.10155476673221113 0.47221832871436537
5575000000.0 -0.09026640752276227 0.4760988046529173
5577500000.0 -0.07890310316713467 0.4795380340717459
5580000000.0 -0.06748263415858252 0.48253365132951953
5582500000.0 -0.056022770686330374 0.485083824082441
5585000000.0 -0.044541282600654354 0.4871872136753814
5587500000.0 -0.033055959948733435 0.488842939425295
5590000000.0 -0.02158464366061742 0.490050548926293
5592500000.0 -0.010145265582432287 0.4908099964866039
5595000000.0 0.001244103331880135 0.4911216317238201
5597500000.0 0.012565198237302186 0.49098620019498723
5600000000.0 0.023799500950711018 0.49040485772283104
5602500000.0 0.03492817809942532 0.4893791998008905
5605000000.0 0.045932019417008224 0.48791130712251096
5607500000.0 0.05679137898129494 0.4860038078871929
5610000000.0 0.06748612237413347 0.4836599571000085
5612500000.0 0.07799558286113005 0.4808837326042078
5615000000.0 0.0882985297351441 0.47767994708382994
5617500000.0 0.09837315193486174 0.4740543747529975
5620000000.0 0.10819705993600794 0.47001389092333906
5622500000.0 0.11774730871529451 0.46556662212313243
5625000000.0 0.1270004443068059 0.4607221039438047
5627500000.0 0.13593257610870155 0.45549144332411595
5630000000.0 0.14451947665834466 0.4498874815623179
5632500000.0 0.15273671008242226 0.4439249539836793
5635000000.0 0.16055978985167332 0.4376206418967779
5637500000.0 0.1679643658370072 0.43099351225728677
5640000000.0 0.17492643998537502 0.4240648403320959
5642500000.0 0.18142260922130019 0.4168583106282681
5645000000.0 0.18743033344747476 0.4094000914267309
5647500000.0 0.19292822577910254 0.40171887844570137
5650000000.0 0.1978963614177836 0.39384590345653786
5652500000.0 0.20231660086823 0.3858149040865268
5655000000.0 0.20617292254189085 0.3776620515684268
5657500000.0 0.2094517591939625 0.36942583383153643
5660000000.0 0.21214233212166256 0.36114689206816797
5662500000.0 0.21423697663009397 0.352867809743534
5665000000.0 0.215731451964616 0.3446328539341252
5667500000.0 0.21662522873108028 0.3364876698653576
5670000000.0 0.21692174679217735 0.32847893055465543
5672500000.0 0.21662863675108915 0.3206539445308919
5675000000.0 0.21575789842185067 0.31306022567106995
5677500000.0 0.2143260301443963 0.3057450302438577
5680000000.0 0.21235410343242872 0.2987548672496844
5682500000.0 0.20986777824010533 0.2921349890684778
5685000000.0 0.2068972550901916 0.2859288702400931
5687500000.0 0.20347716140724303 0.28017768287975325
5690000000.0 0.19964637062442644 0.27491977774456583
5692500000.0 0.1954477539563911 0.27019018029363145
5695000000.0 0.19092786612268292 0.2660201112034557
5697500000.0 0.18613656773181622 0.2624365406976921
5700000000.0 0.18112658845762467 0.25946178571783884
5702500000.0 0.17595303651660277 0.2571131583975586
5705000000.0 0.17067286124753073 0.255402673514572
5707500000.0 0.1653442767628267 0.2543368215942335
5710000000.0 0.16002615564792763 0.2539164131496197
5712500000.0 0.15477740249783412 0.25413649819277034
5715000000.0 0.1496563176710972 0.2549863636752331
5717500000.0 0.14471996199090953 0.2564496099530255
5720000000.0 0.14002353321761812 0.25850430576437977
5722500000.0 0.1356197649523984 0.2611232196032287
5725000000.0 0.1315583582125944 0.26427412381198545
5727500000.0 0.12788545525722772 0.2679201662470749
5730000000.0 0.12464316435719273 0.27202030302937874
5732500000.0 0.12186914312532394 0.2765297847143504
5735000000.0 0.11959624677955039 0.2814006872316692
5737500000.0 0.11785224634455838 0.2865824781738139
5740000000.0 0.11665962034280579 0.2920226084713791
5742500000.0 0.11603542202477458 0.29766711918697397
5745000000.0 0.11599122268056392 0.303461253088723
5747500000.0 0.11653313009806225 0.3093500608214644
5750000000.0 0.11766187982149452 0.31527899186491204
5752500000.0 0.11937299554875594 0.32119446103541643
5755000000.0 0.12165701381229616 0.3270443820285304
5757500000.0 0.1244997670372129 0.3327786603884815
5760000000.0 0.1278827181773998 0.3383496393007566
5762500000.0 0.1317833394063378 0.343712492707711
5765000000.0 0.1361755267897608 0.34882556141701626
5767500000.0 0.1410300424944004 0.35365062908230466
5770000000.0 0.14631497588848497 0.35815313615957245
5772500000.0 0.15199621486090892 0.3623023311587109
5775000000.0 0.15803791881932802 0.36607135969548704
5777500000.0 0.1644029851137589 0.3694372929866526
5780000000.0 0.17105350106090608 0.372381098502439
5782500000.0 0.17795117430308646 0.3748875564812281
5785000000.0 0.18505773491206498 0.37694512690749293
5787500000.0 0.1923353034281855 0.3785457723440245
5790000000.0 0.199746719894963 0.3796847426827226
5792500000.0 0.20725582989379215 0.3803603284257208
5795000000.0 0.21482772458635377 0.3805735895223871
5797500000.0 0.22242893281772352 0.38032806706175987
5800000000.0 0.23002756440284955 0.37962948524921636
5802500000.0 0.23759340479498745 0.3784854510779042
5805000000.0 0.24509796239778475 0.37690515893861815
5807500000.0 0.2525144708126784 0.3748991070980369
5810000000.0 0.2598178492910223 0.3724788325183998
5812500000.0 0.26698462556500296 0.36965666989885576
5815000000.0 0.27399282604427133 0.36644554009958696
5817500000.0 0.2808218390678276 0.36285877227725827
5820000000.0 0.2874522574760848 0.35890996313027695
5822500000.0 0.2938657072023633 0.35461287564301297
5825000000.0 0.3000446688639448 0.3499813786508436
5827500000.0 0.3059722994521017 0.34502942744514453
5830000000.0 0.3116322611731819 0.3397710845236786
5832500000.0 0.31700856427731827 0.3342205784924438
5835000000.0 0.32208543033097936 0.3283923980647241
5837500000.0 0.326847181850393 0.3223014171071219
5840000000.0 0.3312781635257521 0.3159630457738027
5842500000.0 0.33536269944479635 0.3093934019708393
5845000000.0 0.33908508978583585 0.3026094967219247
5847500000.0 0.34242964941440046 0.29562942648139323
5850000000.0 0.3453807897064723 0.28847256507376157
5852500000.0 0.3479231437580562 0.2811597477416581
5855000000.0 0.3500417339508319 0.2737134397621825
5857500000.0 0.3517221796521201 0.26615788224941067
5860000000.0 0.35295094166020824 0.25851920809738754
5862500000.0 0.35371559888903864 0.2508255215299
5865000000.0 0.3540051517443248 0.2431069354041797
5867500000.0 0.3538103457008678 0.23539556125440492
5870000000.0 0.35312400777125497 0.22772544804472655
5872500000.0 0.3519413878810203 0.22013246671340583
5875000000.0 0.35026049665451353 0.21265413880968695
5877500000.0 0.34808243078676915 0.20532940883079945
5880000000.0 0.345411677044363 0.19819836123138826
5882500000.0 0.34225638601415376 0.19130188447378038
5885000000.0 0.33862860701057274 0.18468128588320198
5887500000.0 0.3345444760628083 0.17837786243399872
5890000000.0 0.330024349631174 0.17243243388697063
5892500000.0 0.3250928776391097 0.1668848458876093
5895000000.0 0.31977901054047597 0.16177345168598836
5897500000.0 0.31411593645065794 0.15713458201675723
5900000000.0 0.3081409458280851 0.15300201335079716
5902500000.0 0.30189522276777825 0.14940644517167634
5905000000.0 0.2954235636216682 0.14637499711723456
5907500000.0 0.2887740253492515 0.14393073674466836
5910000000.0 0.28199750767983184 0.14209224831815429
5912500000.0 0.275147274785692 0.14087325238239012
5915000000.0 0.2682784236754919 0.1402822849836295
5917500000.0 0.26144730787198317 0.14032244425113793
5920000000.0 0.254710926094149 0.14099121068508047
5922500000.0 0.2481262865841706 0.14228034594848737
5925000000.0 0.24174975837295323 0.14417587327486361
5927500000.0 0.23563642114373184 0.14665814082866577
5930000000.0 0.22983942541931526 0.14970196754593676
5932500000.0 0.22440937456379595 0.15327686919104747
5935000000.0 0.21939373956373157 0.15734736064606397
5937500000.0 0.2148363167556706 0.1618733288516811
5940000000.0 0.21077673762573354 0.16681046938821797
5942500000.0 0.20725003855834248 0.17211077845964848
5945000000.0 0.20428629699771972 0.17772309105339826
5947500000.0 0.20191033895368998 0.18359365531397867
5950000000.0 0.20014152118071313 0.18966673270139675
5952500000.0 0.19899358973434775 0.19588521330693687
5955000000.0 0.1984746150086924 0.20219123576282255
5957500000.0 0.19858700182450986 0.20852680149329889
5960000000.0 0.19932757170843277 0.2148343735907143
5962500000.0 0.20068771321086043 0.22105745133462074
5965000000.0 0.20265359497903376 0.22714111227294775
5967500000.0 0.20520643535107352 0.2330325148189147
5970000000.0 0.2083228214782483 0.23868135545096125
5972500000.0 0.21197507042203118 0.24404027580101506
5975000000.0 0.2161316243094668 0.24906521614669752
5977500000.0 0.22075747145984836 0.25371571305425356
5980000000.0 0.22581458540840593 0.2579551401237028
5982500000.0 0.23126237393612636 0.26175089194112827
5985000000.0 0.23705813055349972 0.26507451242367414
5987500000.0 0.24315748136327348 0.26790176973291874
5990000000.0 0.2495148208247981 0.27021268081701444
5992500000.0 0.2560837306413114 0.2719914894095226
5995000000.0 0.2628173767724281 0.2732266019544288
5997500000.0 0.2696688804176942 0.27391048643594473
6000000000.0 0.27659165970402777 0.2740395394643378
6002500000.0 0.28353973972144225 0.27361392720331695
6005000000.0 0.2904680294682319 0.27263740582066115
6007500000.0 0.29733256517110634 0.2711171271038091
6010000000.0 0.30409072031878637 0.26906343471042277
6012500000.0 0.3107013835722338 0.2664896562264776
6015000000.0 0.317125106474084 0.2634118957895733
6017500000.0 0.3233242235576948 0.25984883151334426
6020000000.0 0.3292629480381714 0.2558215213323904
6022500000.0 0.33490744674016887 0.25135322019106915
6025000000.0 0.34022589826878863 0.2464692107400951
6027500000.0 0.3451885386514981 0.2411966489009078
6030000000.0 0.3497676987635528 0.23556442482951298
6032500000.0 0.3539378377938393 0.22960303897996923
6035000000.0 0.35767557681121526 0.22334449215568153
6037500000.0 0.36095973615668003 0.21682218766652667
6040000000.0 0.3637713799205387 0.2100708430039864
6042500000.0 0.3660938701760746 0.20312640782711686
6045000000.0 0.36791293294631766 0.19602598453901762
6047500000.0 0.3692167370951761 0.18880774734544725
6050000000.0 0.36999598647916015 0.18151085544006865
6052500000.0 0.37024402479453244 0.1741753558666803
6055000000.0 0.3699569516324458 0.16684207167775877
6057500000.0 0.3691337473393831 0.15955247124434305
6060000000.0 0.36777640340053813 0.15234851497622334
6062500000.0 0.3658900542491494 0.1452724762783612
6065000000.0 0.36348310568430703 0.13836673429030752
6067500000.0 0.3605673544811861 0.131673536815298
6070000000.0 0.35715809332720944 0.12523473282535524
6072500000.0 0.3532741949379895 0.11909147500279273
6075000000.0 0.34893816911748327 0.11328389391879179
6077500000.0 0.3441761866414765 0.10785074662232087
6080000000.0 0.3390180641711496 0.1028290435819207
6082500000.0 0.33349720494615853 0.09825365904998065
6085000000.0 0.32765049075896746 0.09415693096455621
6087500000.0 0.32151812166252497 0.09056825742852155
6090000000.0 0.3151434009905698 0.08751369757193718
6092500000.0 0.3085724645476742 0.08501558517722559
6095000000.0 0.3018539542190798 0.0830921637983985
6097500000.0 0.295038637718891 0.08175725221234356
6100000000.0 0.2881789776936145 0.08101994888687017
6102500000.0 0.28132865487817876 0.08088438373033892
6105000000.0 0.2745420514136292 0.08134952470429019
6107500000.0 0.2678737017305297 0.08240904594664815
6110000000.0 0.2613777195332327 0.08405126289133827
6112500000.0 0.2551072103462729 0.08625913851233083
6115000000.0 0.24911367976982937 0.08901036330598529
6117500000.0 0.24344644801059945 0.09227751000118385
6120000000.0 0.23815208138996175 0.09602826230284035
6122500000.0 0.2332738513766946 0.10022571528415133
6125000000.0 0.228851231250741 0.10482874339935624
6127500000.0 0.22491943979168286 0.10979243054311885
6130000000.0 0.22150904042469918 0.11506855518147356
6132500000.0 0.21864560307973882 0.1206061223634987
6135000000.0 0.2163494346650965 0.12635193342547021
6137500000.0 0.2146353825680675 0.13225118344488676
6140000000.0 0.2135127140189269 0.1382480760058559
6142500000.0 0.21298507253709517 0.14428644460635548
6145000000.0 0.2130505110657699 0.15031037006918038
6147500000.0 0.21370159983704695 0.15626478360197388
6150000000.0 0.21492560553183487 0.1620960456698798
6152500000.0 0.21670473694269213 0.1677524915747408
6155000000.0 0.21901645114065166 0.17318493554979228
6157500000.0 0.22183381311183092 0.17834712624883856
6160000000.0 0.22512590098294605 0.18319614770220446
6162500000.0 0.2288582483069788 0.18769276109617547
6165000000.0 0.23299331443805904 0.19180168407628628
6167500000.0 0.23749097378841794 0.19549180564745736
6170000000.0 0.24230901472820135 0.19873633611536207
6172500000.0 0.24740363905487228 0.20151289285724427
6175000000.0 0.252729953314131 0.2038035239995926
6177500000.0 0.2582424437876444 0.20559467329179906
6180000000.0 0.26389542766140817 0.20687709057614267
6182500000.0 0.26964347373613623 0.2076456932448402
6185000000.0 0.275441787021127 0.20789938492545545
6187500000.0 0.28124655264524745 0.20764083832930505
6190000000.0 0.28701523570135545 0.20687624971842228
6192500000.0 0.2927068348899554 0.2056150727819396
6195000000.0 0.29828208911665893 0.20386973985192375
6197500000.0 0.3037036374986532 0.2016553783250421
6200000000.0 0.30893613451621965 0.19898952988593055
6202500000.0 0.31394632327513006 0.19589187965256244
6205000000.0 0.31870307099131107 0.19238400168880995
6207500000.0 0.3231773718378403 0.18848912646654503
6210000000.0 0.32734232317400924 0.18423193482573885
6212500000.0 0.3311730818779081 0.17963838179935546
6215000000.0 0.3346468079995459 0.17473555236797433
6217500000.0 0.33774260322074934 0.16955154982134835
6220000000.0 0.3404414516314118 0.16411541596747714
6222500000.0 0.3427261701004136 0.158457080986347
6225000000.0 0.3445813750284258 0.1526073393191277
6227500000.0 0.34599347152304183 0.1465978466594837
6230000000.0 0.34695067004557073 0.14046113191754334
6232500000.0 0.3474430343630085 0.1342306170025728
6235000000.0 0.3474625632252187 0.1279406364596829
6237500000.0 0.3470033066113316 0.12162644843527882
6240000000.0 0.3460615156920594 0.11532422816898219
6242500000.0 0.34463582388475894 0.10907103524031529
