! Created with skrf 1.8.0 (http://scikit-rf.org).
# Hz S RI R 50.0 
!freq ReS11 ImS11
5300000000.0 0.486518031659812 0.0403681811481733
5302500000.0 0.4847530375645307 0.045838994725715086
5305000000.0 0.48325838357228806 0.05142504969377308
5307500000.0 0.4820362621399616 0.05711047718681323
5310000000.0 0.4810880344969049 0.0628803882070589
5312500000.0 0.480414489634285 0.06872085052446597
5315000000.0 0.4800160802793906 0.07461881697994835
5317500000.0 0.4798931278697535 0.08056201169726328
5320000000.0 0.4800459900171564 0.08653878189543765
5322500000.0 0.48047518558298097 0.0925379238790026
5325000000.0 0.481181474216496 0.09854849235059758
5327500000.0 0.4821658889786304 0.10455960243350079
5330000000.0 0.4834297224282669 0.11056023371372202
5332500000.0 0.48497446823066437 0.11653904522550448
5335000000.0 0.48680172190745424 0.1224842096326294
5337500000.0 0.4889130457383988 0.12838327393092064
5340000000.0 0.4913098040073191 0.13422305285233177
5342500000.0 0.4939929757263958 0.13998955983115124
5345000000.0 0.4969629526511059 0.145667978945522
5347500000.0 0.5002193307975696 0.15124267972326172
5350000000.0 0.5037607037903045 0.15669727515117027
5352500000.0 0.5075844662051756 0.162014721702133
5355000000.0 0.5116866346426403 0.1671774587435613
5357500000.0 0.5160616935914948 0.17216758335794932
5360000000.0 0.5207024722514993 0.1769670554318271
5362500000.0 0.525600057408991 0.18155792688598535
5365000000.0 0.5307437462420924 0.1859225881537752
5367500000.0 0.5361210416137409 0.1900440244839123
5370000000.0 0.5417176910357783 0.19390607435965057
5372500000.0 0.5475177691000317 0.19749368228998726
5375000000.0 0.5535038018161595 0.2007931384348864
5377500000.0 0.5596569300117475 0.20379229796298698
5380000000.0 0.5659571077749496 0.2064807736874813
5382500000.0 0.5723833308868682 0.2088500963589756
5385000000.0 0.5789138893270332 0.21089383798371056
5387500000.0 0.5855266372627107 0.2126076946484309
5390000000.0 0.5921992734667352 0.21398952653361925
5392500000.0 0.5989096248584554 0.21503935404780597
5395000000.0 0.6056359258305645 0.2157593102796415
5397500000.0 0.6123570862086251 0.21615355120423868
5400000000.0 0.6190529410795268 0.2162281262607896
5402500000.0 0.6257044763060637 0.2159908130063373
5405000000.0 0.6322940242968504 0.2154509205160239
5407500000.0 0.638805425499856 0.2146190670173267
5410000000.0 0.6452241521056268 0.2135069378929682
5412500000.0 0.6515373915520325 0.2121270306482105
5415000000.0 0.6577340885824937 0.21049239370204134
5417500000.0 0.6638049457901557 0.20861636592292976
5420000000.0 0.6697423837459884 0.20651232368931585
5422500000.0 0.6755404629259969 0.2041934419189135
5425000000.0 0.6811947706885119 0.20167247499170274
5427500000.0 0.6867022774775284 0.1989615628064511
5430000000.0 0.6920611672158588 0.19607206638226332
5432500000.0 0.6972706474804605 0.1930144364712989
5435000000.0 0.7023307455047535 0.18979811761654172
5437500000.0 0.7072420963175748 0.18643148900135587
5440000000.0 0.7120057294000071 0.18292184232949044
5442500000.0 0.7166228601201305 0.17927539587893587
5445000000.0 0.7210946918981346 0.17549734282413734
5447500000.0 0.7254222345722691 0.17159193094973824
5450000000.0 0.7296061437972502 0.16756257001408226
5452500000.0 0.7336465855329523 0.16341196228696792
5455000000.0 0.7375431287982985 0.1591422512044045
5457500000.0 0.7412946689024824 0.15475518266855545
5460000000.0 0.744899382353258 0.15025227328423935
5462500000.0 0.7483547136129645 0.1456349797683918
5465000000.0 0.7516573928582 0.14090486389500184
5467500000.0 0.7548034829305061 0.1360637476384253
5470000000.0 0.7577884527717792 0.13111385364077274
5472500000.0 0.7606072738461211 0.12605792673794133
5475000000.0 0.7632545353825271 0.12089933301285015
5477500000.0 0.7657245737491751 0.11564213367963408
5480000000.0 0.7680116109048044 0.1102911320116809
5482500000.0 0.7701098966753904 0.1048518924810605
5485000000.0 0.772013849579578 0.0993307322468281
5487500000.0 0.7737181910738994 0.0937346860848076
5490000000.0 0.7752180684027221 0.08807144676249337
5492500000.0 0.7765091617079539 0.08234928370108804
5495000000.0 0.7775877716645656 0.07657694350694612
5497500000.0 0.7784508846406958 0.07076353657368516
5500000000.0 0.7790962132126709 0.06491841443444374
5502500000.0 0.7795222107698008 0.059051042866365866
5505000000.0 0.7797280598930771 0.05317087590532815
5507500000.0 0.7797136351564491 0.04728723591292894
5510000000.0 0.779479441948633 0.041409204649071954
5512500000.0 0.7790265338178126 0.03554552994679535
5515000000.0 0.7783564116718853 0.0297045520714961
5517500000.0 0.7774709088965348 0.023894153188473786
5520000000.0 0.7763720670582757 0.018121732580579242
5522500000.0 0.7750620073193109 0.012394209374384171
5525000000.0 0.7735428029894454 0.006718053575141266
5527500000.0 0.7718163587659957 0.0010993452070293661
5530000000.0 0.7698843021592591 -0.0044561396642597735
5532500000.0 0.7677478923678052 -0.009942818252836244
5535000000.0 0.7654079514589281 -0.015355168900634224
5537500000.0 0.7628648221347394 -0.02068758151485565
5540000000.0 0.7601183556382898 -0.02593419543262128
5542500000.0 0.7571679324958456 -0.0310887301963755
5545000000.0 0.7540125178242504 -0.03614431521798282
5547500000.0 0.7506507518827149 -0.041093324635522434
5550000000.0 0.7470810754453299 -0.04592722381173036
5552500000.0 0.7433018884451329 -0.05063643387893208
5555000000.0 0.7393117392243898 -0.0552102204997957
5557500000.0 0.735109540650772 -0.059636612588989606
5560000000.0 0.7306948083566681 -0.06390235613539667
5562500000.0 0.7260679154583796 -0.06799290749133789
5565000000.0 0.721230357340992 -0.07189246957128441
5567500000.0 0.7161850194775193 -0.07558407335013283
5570000000.0 0.7109364408080151 -0.07904970589582966
5572500000.0 0.7054910649525805 -0.08227048494170444
5575000000.0 0.6998574714826458 -0.08522687873226233
5577500000.0 0.6940465796347979 -0.08789896859513192
5580000000.0 0.6880718172214447 -0.09026675043613684
5582500000.0 0.6819492480684531 -0.09231047015832397
5585000000.0 0.6756976520817389 -0.09401098690286688
5587500000.0 0.669338552996474 -0.09535015703243259
5590000000.0 0.6628961899738433 -0.09631123095484967
5592500000.0 0.6563974304548474 -0.09687925424324788
5595000000.0 0.6498716230284594 -0.09704146406933774
5597500000.0 0.643350390489163 -0.09678767174616267
5600000000.0 0.6368673647094377 -0.09611062218599707
5602500000.0 0.6304578663985763 -0.09500632132276954
5605000000.0 0.6241585342211036 -0.09347432302454667
5607500000.0 0.6180069090678142 -0.09151796772156102
5610000000.0 0.6120409804737975 -0.08914456588406593
5612500000.0 0.6062987032265964 -0.08636552058055734
5615000000.0 0.600817493074682 -0.08319638460390746
5617500000.0 0.5956337111066391 -0.07965684903917496
5620000000.0 0.5907821468058536 -0.0757706616265034
5622500000.0 0.5862955099816345 -0.07156547480782077
5625000000.0 0.5822039417294698 -0.06707262489690309
5627500000.0 0.5785345542813843 -0.06232684533884309
5630000000.0 0.5753110090801957 -0.057365918488090376
5632500000.0 0.572553141662469 -0.05223027169666949
5635000000.0 0.5702766409845722 -0.046962524732545974
5637500000.0 0.5684927896992441 -0.04160699661240934
5640000000.0 0.5672082706158826 -0.03620918080858378
5642500000.0 0.5664250431890361 -0.03081519845722638
5645000000.0 0.5661402924109363 -0.025471239640264143
5647500000.0 0.5663464509715266 -0.020223003029454734
5650000000.0 0.5670312940293377 -0.015115144165190943
5652500000.0 0.568178104444233 -0.010190742399072361
5655000000.0 0.5697659048923127 -0.005490796066945402
5657500000.0 0.5717697519456318 -0.0010537547916200222
5660000000.0 0.5741610859834321 0.003084903039957279
5662500000.0 0.576908129732559 0.006893040599895739
5665000000.0 0.5799763273340258 0.01034217487800111
5667500000.0 0.5833288151176343 0.013407726284208416
5670000000.0 0.5869269147505382 0.01606920236085948
5672500000.0 0.5907306391172482 0.01831031378231121
5675000000.0 0.5946992011925715 0.020119022253825353
5677500000.0 0.5987915162855341 0.021487521348029386
5680000000.0 0.602966688357085 0.022412152704590144
5682500000.0 0.607184471639467 0.022893261337550694
5685000000.0 0.6114056994977113 0.022934995016434947
5687500000.0 0.6155926733578087 0.02254505378537375
5690000000.0 0.6197095055616911 0.02173439663518685
5692500000.0 0.623722411172793 0.020516913125326944
5695000000.0 0.627599945021425 0.018909068348491008
5697500000.0 0.6313131816176639 0.01692953002657565
5700000000.0 0.6348358369397407 0.014598786713368957
5702500000.0 0.6381443324961625 0.011938766052032833
5705000000.0 0.6412178034266085 0.008972461794532455
5707500000.0 0.6440380537174789 0.005723577840984494
5710000000.0 0.6465894628307735 0.002216196909933317
5712500000.0 0.6488588491494813 -0.0015255193783938333
5715000000.0 0.650835296601544 -0.005477593214787475
5717500000.0 0.6525099516132293 -0.009616451446651198
5720000000.0 0.6538757981416904 -0.013919101130340235
5722500000.0 0.6549274189300619 -0.0183632576783802
5725000000.0 0.6556607513067114 -0.022927424847578627
5727500000.0 0.6560728458087369 -0.02759092718089269
5730000000.0 0.6561616356496853 -0.03233389685595103
5732500000.0 0.6559257245797996 -0.03713721817199396
5735000000.0 0.6553642000164163 -0.041982434091469685
5737500000.0 0.6544764774701564 -0.046851620311702806
5740000000.0 0.6532621812817505 -0.051727233248946534
5742500000.0 0.6517210655412586 -0.056591939048024544
5745000000.0 0.6498529778159418 -0.06142843126700475
5747500000.0 0.6476578669975244 -0.06621924521435943
5750000000.0 0.6451358352282923 -0.07094657702705612
5752500000.0 0.642287232513139 -0.07559211546964129
5755000000.0 0.6391127913064046 -0.08013689410877455
5757500000.0 0.6356137971119763 -0.08456117098322997
5760000000.0 0.6317922899849446 -0.08884434215935244
5762500000.0 0.6276512908030782 -0.09296489465417211
5765000000.0 0.6231950453128235 -0.09690040314575339
5767500000.0 0.6184292782707479 -0.10062757369896824
5770000000.0 0.6133614495155515 -0.10412233644457582
5772500000.0 0.6080010035318288 -0.10735998779261036
5775000000.0 0.6023596040134714 -0.11031538137170253
5777500000.0 0.596451345105012 -0.11296316549947026
5780000000.0 0.5902929313909715 -0.11527806364120827
5782500000.0 0.5839038193087277 -0.11723519303951346
5785000000.0 0.5773063134656329 -0.1188104155301617
5787500000.0 0.5705256123277761 -0.11998071353038572
5790000000.0 0.5635897988919154 -0.12072458332296805
5792500000.0 0.5565297732254495 -0.12102243708727566
5795000000.0 0.5493791251304114 -0.12085700466573844
5797500000.0 0.5421739466207167 -0.12021372581539112
5800000000.0 0.5349525853609878 -0.11908112368692331
5802500000.0 0.5277553416617446 -0.11745115050006048
5805000000.0 0.5206241130215257 -0.11531949683946706
5807500000.0 0.5136019915152079 -0.11268585666882734
5810000000.0 0.506732820514049 -0.10955414103517598
5812500000.0 0.5000607182562078 -0.10593263448839355
5815000000.0 0.49362957663925255 -0.10183408944420269
5817500000.0 0.4874825442565635 -0.09727575504120277
5820000000.0 0.4816615031318778 -0.09227933844849312
5822500000.0 0.47620654881001967 -0.08687089803296133
5825000000.0 0.4711554834344044 -0.08108066925647904
5827500000.0 0.4665433311859045 -0.07494282560514129
5830000000.0 0.46240188498272755 -0.06849517821882264
5832500000.0 0.45875929266259324 -0.06177881915607789
5835000000.0 0.4556396900069613 -0.05483771436581163
5837500000.0 0.4530628869479109 -0.04771825341745898
5840000000.0 0.4510441121499363 -0.04046876384393349
5842500000.0 0.44959381991295416 -0.03313899856034994
5845000000.0 0.4487175620323436 -0.02577960522627262
5847500000.0 0.4484159259104876 -0.018441586614995946
5850000000.0 0.44868453887560245 -0.011175761040856307
5852500000.0 0.44951413735986273 -0.004032231681139264
5855000000.0 0.4508906983502841 0.002940126776763901
5857500000.0 0.4527956293801605 0.00969415631397492
5860000000.0 0.4552060123004574 0.01618487147427289
5862500000.0 0.4580948951803336 0.022369876737040592
5865000000.0 0.46143162595051407 0.028209740115722668
5867500000.0 0.4651822208353462 0.03366831879590514
5870000000.0 0.46930976022723153 0.03871303375031997
5872500000.0 0.47377480444470116 0.04331509141943521
5875000000.0 0.47853582178260434 0.04744965169777603
5877500000.0 0.48354962140501345 0.0510959425901968
5880000000.0 0.48877178394058296 0.05423732297358109
5882500000.0 0.49415708310396766 0.05686129589304777
5885000000.0 0.4996598922703038 0.05895947571616801
5887500000.0 0.5052345706545027 0.060527513244456134
5890000000.0 0.5108358245719317 0.06156498352210406
5892500000.0 0.5164190401593497 0.06207524157504444
5895000000.0 0.5219405848896506 0.06206525164932215
5897500000.0 0.5273580761953576 0.06154539569146399
5900000000.0 0.5326306164978187 0.060529266823711625
5902500000.0 0.5377189948948531 0.05903345341633123
5905000000.0 0.5425858566643755 0.05707731905493219
5907500000.0 0.5471958425704044 0.05468278325363645
5910000000.0 0.5515157006890666 0.05187410718978099
5912500000.0 0.555514374085941 0.04867768805084456
5915000000.0 0.5591630681556772 0.04512186481067599
5917500000.0 0.5624353017674982 0.041236737413687
5920000000.0 0.5653069465370436 0.03705400046807854
5922500000.0 0.5677562585611899 0.03260679165961183
5925000000.0 0.5697639068083111 0.027929554223234666
5927500000.0 0.5713130020560581 0.02305791197865491
5930000000.0 0.5723891298215362 0.01802855467406274
5932500000.0 0.5729803901481133 0.012879130714362332
5935000000.0 0.5730774464165279 0.00764814379894562
5937500000.0 0.57267358455688 0.002374849578241856
5940000000.0 0.5717647831767714 -0.0029008518262294866
5942500000.0 0.5703497942162726 -0.008138531695621336
5945000000.0 0.5684302328212533 -0.01329736117166423
5947500000.0 0.5660106742227389 -0.01833625625088565
5950000000.0 0.5630987545511755 -0.023214042861793897
5952500000.0 0.5597052717302711 -0.027889645006872636
5955000000.0 0.5558442819131747 -0.0323222982406647
5957500000.0 0.5515331863694938 -0.036471789917390814
5960000000.0 0.5467928033275538 -0.0402987266984174
5962500000.0 0.5416474190404398 -0.04376482878856494
5965000000.0 0.5361248122907349 -0.04683324929962792
5967500000.0 0.5302562466860314 -0.04946891605188025
5970000000.0 0.5240764254281707 -0.051638892053109224
5972500000.0 0.5176234037613768 -0.053312749873486144
5975000000.0 0.5109384550087833 -0.05446295419721683
5977500000.0 0.5040658869792065 -0.055065246009751996
5980000000.0 0.497052806546107 -0.0550990212019306
5982500000.0 0.48994883134305084 -0.054547695865224836
5985000000.0 0.48280574875546634 -0.05339905023623449
5987500000.0 0.47567712368341486 -0.0516455431396427
5990000000.0 0.4686178578686085 -0.04928458888649218
5992500000.0 0.46168370488405835 -0.04631878891244835
5995000000.0 0.4549307461381678 -0.04275611098512156
5997500000.0 0.4484148344106969 -0.03861000956076349
6000000000.0 0.44219101248074194 -0.03389948181227999
6002500000.0 0.43631291529542177 -0.028649054960173028
6005000000.0 0.43083216483563463 -0.022888701788466435
6007500000.0 0.4257977673396518 -0.016653682586659425
6010000000.0 0.4212555228311992 -0.009984313191601313
6012500000.0 0.41724745695606813 -0.0029256602722122047
6015000000.0 0.41381128495742836 0.004472833532906215
6017500000.0 0.41097991721884747 0.012157790587395943
6020000000.0 0.408781015185315 0.020072399950248145
6022500000.0 0.4072366056527326 0.028156973160639732
6025000000.0 0.40636276041655844 0.03634954638498712
6027500000.0 0.4061693471164718 0.04458652026313958
6030000000.0 0.4066598558357192 0.05280332804473067
6032500000.0 0.40783130464307066 0.06093512206452079
6035000000.0 0.40967422583613744 0.06891746827669759
6037500000.0 0.4121727331913375 0.07668703845727898
6040000000.0 0.4153046690823573 0.0841822897898708
6042500000.0 0.41904182892836495 0.09134412186617295
6045000000.0 0.423350259106725 0.09811650164808144
6047500000.0 0.4281906232406508 0.10444704763664979
6050000000.0 0.43351863067567564 0.1102875653550854
6052500000.0 0.4392855200115361 0.11559452725567174
6055000000.0 0.4454385897755172 0.12032949127791705
6057500000.0 0.4519217677233991 0.12445945349027722
6060000000.0 0.458676209843485 0.12795713151120702
6062500000.0 0.4656409199226641 0.1308011766973924
6065000000.0 0.47275338051131344 0.13297631437817656
6067500000.0 0.479950186291465 0.13447341267578047
6070000000.0 0.48716767120181553 0.13528948165287738
6072500000.0 0.4943425211912029 0.1354276056457767
6075000000.0 0.5014123651419933 0.13489681264833955
6077500000.0 0.5083163373071982 0.13371188548751287
6080000000.0 0.5149956055158531 0.13189312025733974
6082500000.0 0.5213938603947146 0.12946603804038637
6085000000.0 0.5274577619026457 0.12646105633309387
6087500000.0 0.5331373405468043 0.12291312679931372
6090000000.0 0.5383863517173322 0.11886134600323504
6092500000.0 0.5431625826084641 0.11434854562354725
6095000000.0 0.5474281121595941 0.10942086833461327
6097500000.0 0.5511495253219824 0.10412733507186828
6100000000.0 0.5542980837098318 0.09851940879757806
6102500000.0 0.5568498553071163 0.09265055917266642
6105000000.0 0.5587858063558561 0.08657583174874371
6107500000.0 0.5600918588353152 0.08035142445220775
6110000000.0 0.5607589170480684 0.07403427327232329
6112500000.0 0.5607828667569941 0.06768164822207394
6115000000.0 0.5601645500731341 0.06135075984808162
6117500000.0 0.5589097188897052 0.05509837585787262
6120000000.0 0.5570289691109648 0.04898044683979383
6122500000.0 0.5545376572603753 0.04305173960052485
6125000000.0 0.5514558003001444 0.03736547636059295
6127500000.0 0.5478079586878906 0.031972977946273524
6130000000.0 0.5436231018733417 0.026923309208138294
6132500000.0 0.5389344546383078 0.022262925185199768
6135000000.0 0.5337793219473884 0.018035317015278256
6137500000.0 0.528198889344655 0.014280657254635933
6140000000.0 0.5222379954410106 0.011035445093140589
6142500000.0 0.5159448727217814 0.008332152907779075
6145000000.0 0.5093708527938203 0.006198876653140351
6147500000.0 0.5025700323079441 0.004658993702238651
6150000000.0 0.49559889615133096 0.0037308328801992172
6152500000.0 0.4885158951114002 0.003427362528969034
6155000000.0 0.4813809760649682 0.0037559034537926043
6157500000.0 0.4742550638319023 0.004717874482919487
6160000000.0 0.4671994951286834 0.006308579073499983
6162500000.0 0.4602754065337893 0.008517041876115806
6165000000.0 0.45354307999426585 0.01132590439039933
6167500000.0 0.44706125111453215 0.014711388774618755
6170000000.0 0.4408863872231244 0.018643338491418977
6172500000.0 0.43507194395364895 0.023085343768242155
6175000000.0 0.42966761074546134 0.02799495882250801
6177500000.0 0.4247185572082168 0.03332401645740094
6180000000.0 0.42026469364637603 0.03901904399314313
6182500000.0 0.4163399601515866 0.045021782590172366
6185000000.0 0.4129716594948707 0.05126980988283897
6187500000.0 0.4101798495459034 0.05769726352092493
6190000000.0 0.40797681108013023 0.0642356607639868
6192500000.0 0.40636660658177615 0.07081480674796606
6195000000.0 0.40534474499735235 0.07736378150486296
6197500000.0 0.40489796633394565 0.08381199332781963
6200000000.0 0.40500415853433974 0.09009028369825574
6202500000.0 0.40563241720897886 0.09613206679070223
6205000000.0 0.4067432565856453 0.10187448460487604
6207500000.0 0.4082889774808608 0.10725955709954367
6210000000.0 0.41021419524020813 0.1122353053722033
6212500000.0 0.41245652748253947 0.11675682499075633
6215000000.0 0.41494743816660035 0.12078728608135396
6217500000.0 0.41761323103530984 0.12429883674837142
6220000000.0 0.420376181946424 0.1272733868793897
6222500000.0 0.42315579603790787 0.12970325039452124
6225000000.0 0.42587017217666934 0.13159162555220918
6227500000.0 0.42843745378102605 0.13295289502980687
6230000000.0 0.4307773419745246 0.13381273015458425
6232500000.0 0.43281264421100424 0.1342079868532099
6235000000.0 0.4344708290980168 0.13418638458805857
6237500000.0 0.4356855562305711 0.13380596371142603
6240000000.0 0.43639814851823266 0.13313432123467636
6242500000.0 0.43655897383088943 0.13224762989929206
6245000000.0 0.436128702877465 0.1312294505544375
