! Created with skrf 1.8.0 (http://scikit-rf.org).
# Hz S RI R 100.0 
!freq ReS11 ImS11
5300000000.0 0.2855623434843273 0.459796271919892
5302500000.0 0.28825867606142697 0.453526579084358
5305000000.0 0.2908921275034564 0.4471651718706393
5307500000.0 0.29345943811076713 0.44071306875973765
5310000000.0 0.29595739703539836 0.4341714047358071
5312500000.0 0.29838284584282865 0.42754142807236234
5315000000.0 0.3007326818999098 0.420824497060284
5317500000.0 0.3030038615913919 0.4140220766843753
5320000000.0 0.30519340336795475 0.4071357352549683
5322500000.0 0.307298390628151 0.4001671410006754
5325000000.0 0.30931597443741465 0.39311805862832333
5327500000.0 0.3112433760868196 0.38599034585560227
5330000000.0 0.31307788949470927 0.3787859499218936
5332500000.0 0.31481688345407827 0.37150690408232745
5335000000.0 0.31645780372892246 0.3641553240900741
5337500000.0 0.31799817500261307 0.35673340467141484
5340000000.0 0.3194356026813223 0.3492434159981305
5342500000.0 0.3207677745558316 0.3416877001613506
5345000000.0 0.3219924623247673 0.3340686676509339
5347500000.0 0.3231075229824535 0.32638879384417224
5350000000.0 0.32411090007459764 0.318650615507483
5352500000.0 0.325000624824949 0.3108567273144509
5355000000.0 0.3257748171361036 0.303009778383607
5357500000.0 0.3264316864676204 0.2951124688389441
5360000000.0 0.32696953259458095 0.28716754639615916
5362500000.0 0.3273867462497161 0.279177802977404
5365000000.0 0.32768180965220367 0.27114607135719565
5367500000.0 0.32785329692625775 0.2630752218419396
5370000000.0 0.3278998744124903 0.2549681589854843
5372500000.0 0.3278203008751547 0.24682781834289666
5375000000.0 0.32761342760824513 0.23865716326458017
5377500000.0 0.32727819844340306 0.2304591817327457
5380000000.0 0.3268136496626841 0.22223688324209395
5382500000.0 0.3262189098189086 0.21399329572644826
5385000000.0 0.3254931994667445 0.2057314625330372
5387500000.0 0.3246358308071365 0.19745443944600904
5390000000.0 0.3236462072480538 0.1891652917605383
5392500000.0 0.32252382288431586 0.180867091409046
5395000000.0 0.3212682618992302 0.17256291414066757
5397500000.0 0.31987919789081415 0.16425583675526445
5400000000.0 0.31835639312527886 0.15594893439306548
5402500000.0 0.3166996977204135 0.14764527788091983
5405000000.0 0.31490904876159487 0.13934793113625268
5407500000.0 0.31298446935289626 0.13105994862939388
5410000000.0 0.31092606760599945 0.12278437290531487
5412500000.0 0.3087340355693465 0.11452423216534739
5415000000.0 0.3064086481001072 0.10628253790965586
5417500000.0 0.30395026168139994 0.0980622826410002
5420000000.0 0.30135931318726505 0.08986643763039709
5422500000.0 0.2986363185977157 0.08169795074510486
5425000000.0 0.29578187166637204 0.07355974433937985
5427500000.0 0.2927966425429406 0.06545471320839616
5430000000.0 0.28968137635289126 0.05738572260555879
5432500000.0 0.28643689173668113 0.04935560632353871
5435000000.0 0.28306407935067945 0.04136716483916923
5437500000.0 0.27956390033214407 0.03342316352240202
5440000000.0 0.27593738473038154 0.025526330909332103
5442500000.0 0.2721856299062846 0.017679357039442394
5445000000.0 0.26830979890240275 0.009884891856925803
5447500000.0 0.2643111187856443 0.002145543676162901
5450000000.0 0.2601908789646911 -0.005536122288859271
5452500000.0 0.25595042948420293 -0.013157585331267976
5455000000.0 0.25159117929777763 -0.02071637059442673
5457500000.0 0.24711459452171586 -0.028210050351618717
5460000000.0 0.24252219667151587 -0.03563624522267859
5462500000.0 0.23781556088301625 -0.04299262532779224
5465000000.0 0.23299631412009925 -0.05027691137894354
5467500000.0 0.22806613337079035 -0.057486875709329116
5470000000.0 0.22302674383360926 -0.06462034324125576
5472500000.0 0.21787991709593374 -0.07167519239297272
5475000000.0 0.21262746930614854 -0.07864935592500255
5477500000.0 0.20727125934131257 -0.08554082172648068
5480000000.0 0.20181318697202183 -0.09234763354218457
5482500000.0 0.19625519102608932 -0.09906789164082641
5485000000.0 0.19059924755276086 -0.1056997534252915
5487500000.0 0.18484736798889595 -0.11224143398558178
5490000000.0 0.17900159732881615 -0.11869120659509935
5492500000.0 0.17306401229921167 -0.12504740315114163
5495000000.0 0.16703671954061972 -0.13130841456037118
5497500000.0 0.16092185379693824 -0.13747269107002166
5500000000.0 0.1547215761142966 -0.14353874254584606
5502500000.0 0.14843807205071838 -0.1495051386974987
5505000000.0 0.14207354989782514 -0.1553705092524333
5507500000.0 0.13563023891589823 -0.1611335440791613
5510000000.0 0.1291103875835395 -0.16679299326079863
5512500000.0 0.12251626186308104 -0.17234766711999192
5515000000.0 0.1158501434829839 -0.17779643619608687
5517500000.0 0.10911432823825398 -0.18313823117566647
5520000000.0 0.10231112431000455 -0.18837204277747113
5522500000.0 0.09544285060521437 -0.19349692159268062
5525000000.0 0.08851183511760899 -0.19851197788174688
5527500000.0 0.08152041331071384 -0.20341638132879133
5530000000.0 0.07447092652390283 -0.20820936075466726
5532500000.0 0.06736572040236324 -0.21289020378985776
5535000000.0 0.06020714335182894 -0.2174582565082362
5537500000.0 0.05299754501878856 -0.22191292302293159
5540000000.0 0.045739274797036454 -0.2262536650453574
5542500000.0 0.03843468036116772 -0.23048000140859523
5545000000.0 0.031086106227731024 -0.23459150755629202
5547500000.0 0.023695892344704206 -0.23858781499819445
5550000000.0 0.016266372709806486 -0.2424686107335357
5552500000.0 0.00879987401823426 -0.2462336366434197
5555000000.0 0.0012987143403654369 -0.24988268885334045
5557500000.0 -0.006234798170192832 -0.2534156170670809
5560000000.0 -0.013798366537673365 -0.2568323238730777
5562500000.0 -0.021389706194018213 -0.26013276402447194
5565000000.0 -0.02900654617718636 -0.2633169436940065
5567500000.0 -0.03664663029751046 -0.2663849197048835
5570000000.0 -0.044307718271947946 -0.26933679873880106
5572500000.0 -0.051987586825838365 -0.272172736522256
5575000000.0 -0.05968403076208046 -0.2748929369923012
5577500000.0 -0.06739486399749284 -0.2774976514428582
5580000000.0 -0.07511792056619804 -0.27998717765270625
5582500000.0 -0.08285105559001402 -0.2823618589962942
5585000000.0 -0.09059214621565767 -0.2846220835384254
5587500000.0 -0.09833909251882068 -0.28676828311394736
5590000000.0 -0.10608981837508039 -0.2888009323935008
5592500000.0 -0.11384227229760323 -0.2907205479363825
5595000000.0 -0.12159442824181135 -0.2925276872316006
5597500000.0 -0.12934428637696635 -0.2942229477281134
5600000000.0 -0.1370898738248723 -0.2958069658553086
5602500000.0 -0.1448292453657985 -0.2972804160346889
5605000000.0 -0.1525604841117455 -0.2986440096837665
5607500000.0 -0.16028170214733647 -0.2998984942131271
5610000000.0 -0.16799104113842486 -0.30104465201760905
5612500000.0 -0.17568667290876697 -0.302083299462526
5615000000.0 -0.18336679998495498 -0.3030152858658359
5617500000.0 -0.1910296561098766 -0.3038414924771604
5620000000.0 -0.19867350672506126 -0.3045628314545032
5622500000.0 -0.20629664942220924 -0.305180244839537
5625000000.0 -0.21389741436418766 -0.30569470353226486
5627500000.0 -0.2214741646759736 -0.30610720626588644
5630000000.0 -0.2290252968057859 -0.3064187785826282
5632500000.0 -0.23654924085689596 -0.3066304718113195
5635000000.0 -0.24404446089051024 -0.3067433620474632
5637500000.0 -0.25150945520006934 -0.3067585491364903
5640000000.0 -0.2589427565575374 -0.30667715566092413
5642500000.0 -0.2663429324319858 -0.306500325932129
5645000000.0 -0.27370858518105134 -0.30622922498727845
5647500000.0 -0.2810383522156845 -0.3058650375921914
5650000000.0 -0.28833090613864554 -0.30540896725064465
5652500000.0 -0.29558495485733544 -0.3048622352207397
5655000000.0 -0.30279924167134264 -0.3042260795388983
5657500000.0 -0.30997254533531765 -0.3035017540520306
5660000000.0 -0.3171036800976418 -0.3026905274583855
5662500000.0 -0.32419149571539546 -0.30179368235760745
5665000000.0 -0.33123487744622737 -0.300812514310447
5667500000.0 -0.3382327460175548 -0.2997483309086126
5670000000.0 -0.3451840575737318 -0.2986024508551835
5672500000.0 -0.35208780360167075 -0.297376203055992
5675000000.0 -0.3589430108354436 -0.2960709257223996
5677500000.0 -0.36574874114048617 -0.294687965485802
5680000000.0 -0.3725040913778502 -0.2932286765242563
5682500000.0 -0.37920819324913585 -0.29169441970153165
5685000000.0 -0.38586021312261876 -0.2900865617189246
5687500000.0 -0.3924593518410942 -0.2884064742801215
5690000000.0 -0.39900484451203055 -0.2866555332693862
5692500000.0 -0.4054959602805633 -0.28483511794334243
5695000000.0 -0.4119320020858338 -0.2829466101365803
5697500000.0 -0.4183123064012889 -0.28099139348131386
5700000000.0 -0.42463624295939123 -0.2789708526413095
5702500000.0 -0.43090321446134777 -0.27688637256025117
5705000000.0 -0.43711265627236356 -0.274739337724735
5707500000.0 -0.44326403610290355 -0.2725311314420475
5710000000.0 -0.4493568536765757 -0.2702631351328619
5712500000.0 -0.4553906403850468 -0.2679367276389896
5715000000.0 -0.46136495893059487 -0.26555328454629135
5717500000.0 -0.46727940295675086 -0.26311417752284527
5720000000.0 -0.473133596667529 -0.2606207736724751
5722500000.0 -0.4789271944357898 -0.2580744349036733
5725000000.0 -0.48465988040114466 -0.25547651731401927
5727500000.0 -0.49033136805796373 -0.2528283705901056
5730000000.0 -0.4959413998339156 -0.2501313374230171
5732500000.0 -0.5014897466594952 -0.24738675293939882
5735000000.0 -0.5069762075290563 -0.24459594414809277
5737500000.0 -0.5124006090537314 -0.24176022940237907
5740000000.0 -0.5177628050067414 -0.2388809178777818
5742500000.0 -0.5230626758615116 -0.2359593090654345
5745000000.0 -0.5283001283230007 -0.23299669228098135
5747500000.0 -0.5334750948527193 -0.22999434618894854
5750000000.0 -0.5385875331877913 -0.22695353834258158
5752500000.0 -0.5436374258545151 -0.22387552473905073
5755000000.0 -0.5486247796768043 -0.22076154938997805
5757500000.0 -0.5535496252798717 -0.21761284390723976
5760000000.0 -0.5584120165896012 -0.21443062710390456
5762500000.0 -0.5632120303279122 -0.21121610461030305
5765000000.0 -0.5679497655045386 -0.20797046850506576
5767500000.0 -0.5726253429055598 -0.2046948969610705
5770000000.0 -0.5772389045790141 -0.20139055390620225
5772500000.0 -0.581790613317979 -0.1980585886987821
5775000000.0 -0.5862806521414289 -0.1947001358175891
5777500000.0 -0.5907092237731817 -0.19131631456634624
5780000000.0 -0.5950765501193076 -0.18790822879252367
5782500000.0 -0.5993828717442378 -0.1844769666203856
5785000000.0 -0.6036284473459477 -0.181023600198092
5787500000.0 -0.6078135532304749 -0.17754918545875992
5790000000.0 -0.6119384827860519 -0.17405476189535202
5792500000.0 -0.6160035459571817 -0.17054135234920798
5795000000.0 -0.6200090687188682 -0.16700996281213953
5797500000.0 -0.623955392551339 -0.16346158224189036
5800000000.0 -0.6278428739154654 -0.15989718239083744
5802500000.0 -0.6316718837291616 -0.15631771764780036
5805000000.0 -0.6354428068450201 -0.1527241248927605
5807500000.0 -0.6391560415293931 -0.1491173233643989
5810000000.0 -0.6428119989431917 -0.14549821454024994
5812500000.0 -0.6464111026246182 -0.14186768202932085
5815000000.0 -0.6499537879740361 -0.1382265914770676
5817500000.0 -0.653440501741244 -0.1345757904824983
5820000000.0 -0.6568717015153072 -0.13091610852730926
5822500000.0 -0.6602478552172015 -0.12724835691685626
5825000000.0 -0.6635694405954613 -0.1235733287328073
5827500000.0 -0.6668369447249949 -0.11989179879734456
5830000000.0 -0.6700508635093165 -0.11620452364870855
5832500000.0 -0.6732117011863261 -0.11251224152797595
5835000000.0 -0.6763199698378622 -0.10881567237686317
5837500000.0 -0.6793761889031878 -0.10511551784642781
5840000000.0 -0.6823808846965731 -0.1014124613164946
5842500000.0 -0.6853345899291683 -0.09770716792565011
5845000000.0 -0.6882378432353216 -0.09400028461162895
5847500000.0 -0.6910911887034931 -0.09029244016196845
5850000000.0 -0.693895175411944 -0.08658424527472447
5852500000.0 -0.6966503569693457 -0.08287629262913089
5855000000.0 -0.6993572910604536 -0.07916915696601777
5857500000.0 -0.7020165389970171 -0.07546339517782782
5860000000.0 -0.7046286652740357 -0.07175954640809905
5862500000.0 -0.7071942371315473 -0.06805813216021249
5865000000.0 -0.709713824122049 -0.06435965641529522
5867500000.0 -0.7121879976837104 -0.06066460575907596
5870000000.0 -0.7146173307195184 -0.05697344951755183
5872500000.0 -0.7170023971824624 -0.053286639901334254
5875000000.0 -0.7193437716669177 -0.04960461215845684
5877500000.0 -0.721642029006332 -0.04592778473555542
5880000000.0 -0.7238977438773609 -0.04225655944720473
5882500000.0 -0.7261114904105693 -0.038591321653287734
5885000000.0 -0.7282838418078091 -0.034932440444235505
5887500000.0 -0.7304153699664241 -0.03128026883395401
5890000000.0 -0.7325066451103629 -0.027635143960324952
5892500000.0 -0.7345582354283575 -0.023997387293068974
5895000000.0 -0.7365707067192557 -0.020367304848853504
5897500000.0 -0.7385446220446282 -0.016745187413469365
5900000000.0 -0.7404805413887814 -0.013131310770903888
5902500000.0 -0.742379021326262 -0.00952593593917454
5905000000.0 -0.7442406146969883 -0.0059293094127373155
5907500000.0 -0.7460658702891072 -0.0023416634113219287
5910000000.0 -0.7478553325296863 0.0012367838649772359
5912500000.0 -0.7496095411833482 0.004805827974517487
5915000000.0 -0.7513290310589745 0.008365277967006632
5917500000.0 -0.7530143317245468 0.01191495611062774
5920000000.0 -0.7546659672302689 0.015454697613594203
5922500000.0 -0.7562844558400524 0.018984350340275853
5925000000.0 -0.7578703097714768 0.02250377452208569
5927500000.0 -0.7594240349443253 0.026012842463306023
5930000000.0 -0.7609461307377964 0.029511438241998537
5932500000.0 -0.7624370897564932 0.032999457406231995
5935000000.0 -0.7638973976052899 0.03647680666575183
5937500000.0 -0.7653275326731731 0.039943403579317374
5940000000.0 -0.766727965926155 0.043399176237869236
5942500000.0 -0.7680991607093515 0.04684406294372098
5945000000.0 -0.7694415725583327 0.05027801188597989
5947500000.0 -0.7707556490198081 0.05370098081236086
5950000000.0 -0.772041829481778 0.05711293669762232
5952500000.0 -0.773300545013218 0.06051385540881895
5955000000.0 -0.7745322182133764 0.06390372136754281
5957500000.0 -0.7757372630707998 0.06728252720941014
5960000000.0 -0.7769160848321384 0.07065027344096361
5962500000.0 -0.7780690798808444 0.07400696809422581
5965000000.0 -0.7791966356258234 0.07735262637911815
5967500000.0 -0.7802991304001182 0.0806872703339548
5970000000.0 -0.7813769333697163 0.08401092847426044
5972500000.0 -0.7824304044525353 0.08732363544011247
5975000000.0 -0.7834598942476638 0.09062543164226795
5977500000.0 -0.7844657439749362 0.09391636290730852
5980000000.0 -0.7854482854248819 0.09719648012201476
5982500000.0 -0.7864078409191275 0.10046583887726705
5985000000.0 -0.7873447232813116 0.10372449911168906
5987500000.0 -0.7882592358185485 0.10697252475528504
5990000000.0 -0.789151672313502 0.11020998337337476
5992500000.0 -0.7900223170271177 0.11343694581102648
5995000000.0 -0.7908714447120424 0.11665348583831704
5997500000.0 -0.7916993206367824 0.11985967979665829
6000000000.0 -0.7925062006206098 0.12305560624647138
6002500000.0 -0.793292331079267 0.12624134561651879
6005000000.0 -0.7940579490814731 0.12941697985513767
6007500000.0 -0.7948032824162498 0.13258259208371256
6010000000.0 -0.7955285496710813 0.1357382662526678
6012500000.0 -0.7962339603209067 0.1388840868002566
6015000000.0 -0.7969197148279328 0.14202013831450563
6017500000.0 -0.7975860047522683 0.14514650519858036
6020000000.0 -0.7982330128733569 0.14826327133991996
6022500000.0 -0.7988609133221758 0.15137051978344418
6025000000.0 -0.7994698717241749 0.15446833240915742
6027500000.0 -0.800060045352912 0.15755678961450625
6030000000.0 -0.8006315832943208 0.1606359700017741
6032500000.0 -0.8011846266215765 0.16370595007091412
6035000000.0 -0.8017193085804705 0.1667668039181117
6037500000.0 -0.8022357547852135 0.1698186029404465
6040000000.0 -0.8027340834245996 0.17286141554700918
6042500000.0 -0.8032144054784107 0.17589530687680055
6045000000.0 -0.8036768249439574 0.1789203385237993
6047500000.0 -0.8041214390726468 0.18193656826955168
6050000000.0 -0.8045483386164329 0.18494404982362478
6052500000.0 -0.804957608084009 0.18794283257231675
6055000000.0 -0.8053493260065873 0.19093296133598825
6057500000.0 -0.8057235652131084 0.19391447613535454
6060000000.0 -0.8060803931146747 0.19688741196716578
6062500000.0 -0.8064198719980422 0.1998517985895881
6065000000.0 -0.8067420593279326 0.20280766031770964
6067500000.0 -0.8070470080579853 0.20575501582952738
6070000000.0 -0.8073347669500682 0.2086938779827799
6072500000.0 -0.8076053809017271 0.21162425364302712
6075000000.0 -0.807858891281497 0.21454614352332554
6077500000.0 -0.8080953362717962 0.21745954203590234
6080000000.0 -0.8083147512191166 0.22036443715618645
6082500000.0 -0.8085171689911667 0.22326081029955433
6085000000.0 -0.8087026203406835 0.22614863621119957
6087500000.0 -0.808871134275525 0.22902788286945086
6090000000.0 -0.8090227384347152 0.23189851140292525
6092500000.0 -0.809157459470033 0.23476047602188424
6095000000.0 -0.8092753234327674 0.23761372396410857
6097500000.0 -0.8093763561652153 0.2404581954556983
6100000000.0 -0.809460583696483 0.24329382368707955
6102500000.0 -0.80952803264216 0.24612053480461252
6105000000.0 -0.809578730607359 0.24893824791808694
6107500000.0 -0.809612706592666 0.25174687512445476
6110000000.0 -0.8096299914024739 0.2545463215480978
6112500000.0 -0.8096306180551744 0.257336485397933
6115000000.0 -0.809614622194655 0.2601172580416614
6117500000.0 -0.8095820425025575 0.262888524097439
6120000000.0 -0.8095329211106568 0.265650161543207
6122500000.0 -0.8094673040128172 0.268402041844003
6125000000.0 -0.8093852414758621 0.2711440300974256
6127500000.0 -0.8092867884486957 0.27387598519752476
6130000000.0 -0.8091720049690522 0.27659776001731995
6132500000.0 -0.8090409565671463 0.27930920161011646
6135000000.0 -0.8088937146655265 0.28201015142983515
6137500000.0 -0.808730356974416 0.28470044557049534
6140000000.0 -0.8085509678817762 0.28737991502494215
6142500000.0 -0.8083556388373279 0.2900483859630513
6145000000.0 -0.8081444687297525 0.29270568002934827
6147500000.0 -0.8079175642562499 0.2953516146602536
6150000000.0 -0.8076750402836392 0.29798600342090154
6152500000.0 -0.8074170202001448 0.30060865636159473
6155000000.0 -0.8071436362570196 0.3032193803938866
6157500000.0 -0.8068550298991006 0.30581797968620944
6160000000.0 -0.8065513520834108 0.308404256079055
6162500000.0 -0.806232763584903 0.3109780095195322
6165000000.0 -0.8058994352883758 0.31353903851519965
6167500000.0 -0.8055515484656326 0.31608714060704046
6170000000.0 -0.8051892950369499 0.3186221128612992
6172500000.0 -0.8048128778157765 0.32114375238001747
6175000000.0 -0.8044225107358104 0.32365185682993963
6177500000.0 -0.804018419059308 0.3261462249895069
6180000000.0 -0.8036008395657096 0.32862665731353885
6182500000.0 -0.8031700207194867 0.33109295651523013
6185000000.0 -0.8027262228162105 0.33354492816501347
6187500000.0 -0.8022697181057703 0.33598238130578234
6190000000.0 -0.8018007908917022 0.3384051290839388
6192500000.0 -0.8013197376055453 0.3408129893956877
6195000000.0 -0.8008268668551981 0.3432057855479017
6197500000.0 -0.8003224994461451 0.3455833469329042
6200000000.0 -0.7998069683745661 0.34794550971642807
6202500000.0 -0.7992806187911674 0.35029211753787914
6205000000.0 -0.7987438079347411 0.3526230222221482
6207500000.0 -0.7981969050343589 0.35493808450196823
6210000000.0 -0.7976402911791455 0.3572371747498837
6212500000.0 -0.7970743591545738 0.35952017371880624
6215000000.0 -0.7964995132442793 0.36178697329000836
6217500000.0 -0.7959161689963303 0.36403747722742924
6220000000.0 -0.7953247529529788 0.3662716019370876
6222500000.0 -0.7947257023428901 0.36848927723022257
6225000000.0 -0.7941194647348623 0.3706904470888834
6227500000.0 -0.7935064976521572 0.37287507043251095
6230000000.0 -0.7928872681464422 0.37504312188396133
6232500000.0 -0.7922622523305419 0.3771945925334874
