! Created with skrf 1.8.0 (http://scikit-rf.org).
# Hz S RI R 100.0 
!freq ReS11 ImS11 ReS21 ImS21 ReS12 ImS12 ReS22 ImS22
5300000000.0 -0.2043894780671722 0.6649654120020029 -0.5451377213193006 -0.1060877775386534 -0.5451377213193006 -0.1060877775386534 -0.2043894780671722 0.6649654120020029
5302500000.0 -0.20297647944711056 0.6638188878491247 -0.54636762449984 -0.10456915028342757 -0.54636762449984 -0.10456915028342757 -0.20297647944711056 0.6638188878491247
5305000000.0 -0.201567211897676 0.6626674226401865 -0.5475940598788515 -0.10304479876755253 -0.5475940598788515 -0.10304479876755253 -0.201567211897676 0.6626674226401865
5307500000.0 -0.20016148283744045 0.6615108883349531 -0.5488172419575054 -0.10151461864706345 -0.5488172419575054 -0.10151461864706345 -0.20016148283744045 0.6615108883349531
5310000000.0 -0.19875911091044415 0.6603491483372848 -0.5500373751891993 -0.09997849506401772 -0.5500373751891993 -0.09997849506401772 -0.19875911091044415 0.6603491483372848
5312500000.0 -0.1973599260767453 0.6591820581100503 -0.551254653790773 -0.09843630325950647 -0.551254653790773 -0.09843630325950647 -0.1973599260767453 0.6591820581100503
5315000000.0 -0.19596376967992368 0.6580094657775325 -0.5524692615789865 -0.09688790917743581 -0.5524692615789865 -0.09688790917743581 -0.19596376967992368 0.6580094657775325
5317500000.0 -0.19457049449242259 0.6568312127149956 -0.5536813718312504 -0.09533317005860514 -0.5536813718312504 -0.09533317005860514 -0.19457049449242259 0.6568312127149956
5320000000.0 -0.19317996473988497 0.6556471341250661 -0.554891147169649 -0.0937719350246081 -0.554891147169649 -0.0937719350246081 -0.19317996473988497 0.6556471341250661
5322500000.0 -0.1917920561054745 0.6544570596006234 -0.5560987394672573 -0.09220404565101233 -0.5560987394672573 -0.09220404565101233 -0.1917920561054745 0.6544570596006234
5325000000.0 -0.19040665571505927 0.6532608136739516 -0.5573042897758487 -0.09062933652957342 -0.5573042897758487 -0.09062933652957342 -0.19040665571505927 0.6532608136739516
5327500000.0 -0.18902366210438168 0.6520582163520188 -0.5585079282739648 -0.08904763581896945 -0.5585079282739648 -0.08904763581896945 -0.18902366210438168 0.6520582163520188
5330000000.0 -0.18764298516908576 0.6508490836375646 -0.5597097742345576 -0.08745876578384089 -0.5597097742345576 -0.08745876578384089 -0.18764298516908576 0.6508490836375646
5332500000.0 -0.1862645460984245 0.6496332280359622 -0.5609099360111597 -0.0858625433217998 -0.5609099360111597 -0.0858625433217998 -0.1862645460984245 0.6496332280359622
5335000000.0 -0.18488827729375668 0.6484104590477288 -0.5621085110418216 -0.08425878047818083 -0.5621085110418216 -0.08425878047818083 -0.18488827729375668 0.6484104590477288
5337500000.0 -0.1835141222725003 0.6471805836465601 -0.5633055858698764 -0.08264728494829798 -0.5633055858698764 -0.08264728494829798 -0.1835141222725003 0.6471805836465601
5340000000.0 -0.18214203555848046 0.6459434067428704 -0.5645012361807218 -0.08102786056704388 -0.5645012361807218 -0.08102786056704388 -0.18214203555848046 0.6459434067428704
5342500000.0 -0.18077198255955712 0.6446987316327761 -0.5656955268537603 -0.07940030778570818 -0.5656955268537603 -0.07940030778570818 -0.18077198255955712 0.6446987316327761
5345000000.0 -0.17940393943317623 0.6434463604325928 -0.5668885120287568 -0.07776442413578658 -0.5668885120287568 -0.07776442413578658 -0.17940393943317623 0.6434463604325928
5347500000.0 -0.1780378929407721 0.6421860944987698 -0.5680802351857406 -0.07612000467983038 -0.5680802351857406 -0.07612000467983038 -0.1780378929407721 0.6421860944987698
5350000000.0 -0.17667384029170768 0.6409177348333855 -0.5692707292377597 -0.07446684244913972 -0.5692707292377597 -0.07446684244913972 -0.17667384029170768 0.6409177348333855
5352500000.0 -0.1753117889774816 0.6396410824752312 -0.5704600166356952 -0.07280472886834573 -0.5704600166356952 -0.07280472886834573 -0.1753117889774816 0.6396410824752312
5355000000.0 -0.17395175659692774 0.6383559388765787 -0.5716481094844469 -0.07113345416681102 -0.5716481094844469 -0.07113345416681102 -0.17395175659692774 0.6383559388765787
5357500000.0 -0.1725937706730968 0.6370621062657336 -0.5728350096697483 -0.06945280777686859 -0.5728350096697483 -0.06945280777686859 -0.1725937706730968 0.6370621062657336
5360000000.0 -0.17123786846242156 0.6357593879955143 -0.5740207089949602 -0.06776257871891292 -0.5740207089949602 -0.06776257871891292 -0.17123786846242156 0.6357593879955143
5362500000.0 -0.16988409675694968 0.6344475888777258 -0.5752051893271509 -0.06606255597340581 -0.5752051893271509 -0.06606255597340581 -0.16988409675694968 0.6344475888777258
5365000000.0 -0.16853251168005404 0.633126515503901 -0.5763884227518329 -0.06435252883982442 -0.5763884227518329 -0.06435252883982442 -0.16853251168005404 0.633126515503901
5367500000.0 -0.16718317847639433 0.6317959765523549 -0.5775703717357523 -0.06263228728266576 -0.5775703717357523 -0.06263228728266576 -0.16718317847639433 0.6317959765523549
5370000000.0 -0.16583617129660685 0.6304557830818082 -0.5787509892970726 -0.060901622264577904 -0.5787509892970726 -0.060901622264577904 -0.16583617129660685 0.6304557830818082
5372500000.0 -0.16449157297729788 0.6291057488117207 -0.5799302191824364 -0.05916032606673386 -0.5799302191824364 -0.05916032606673386 -0.16449157297729788 0.6291057488117207
5375000000.0 -0.16314947481688413 0.6277456903895908 -0.581107996050282 -0.05740819259657246 -0.581107996050282 -0.05740819259657246 -0.16314947481688413 0.6277456903895908
5377500000.0 -0.16180997634773836 0.6263754276453531 -0.5822842456599191 -0.05564501768306287 -0.5822842456599191 -0.05564501768306287 -0.16180997634773836 0.6263754276453531
5380000000.0 -0.16047318510520675 0.6249947838332306 -0.5834588850658048 -0.05387059935958535 -0.5834588850658048 -0.05387059935958535 -0.16047318510520675 0.6249947838332306
5382500000.0 -0.15913921639387726 0.6236035858610778 -0.5846318228165243 -0.052084738134673625 -0.5846318228165243 -0.052084738134673625 -0.15913921639387726 0.6236035858610778
5385000000.0 -0.15780819305161026 0.6222016645076233 -0.5858029591580105 -0.05028723725070922 -0.5858029591580105 -0.05028723725070922 -0.15780819305161026 0.6222016645076233
5387500000.0 -0.15648024521172832 0.6207888546277681 -0.5869721862404914 -0.04847790293080107 -0.5869721862404914 -0.04847790293080107 -0.15648024521172832 0.6207888546277681
5390000000.0 -0.1551555100637833 0.6193649953462207 -0.5881393883287747 -0.04665654461401156 -0.5881393883287747 -0.04665654461401156 -0.1551555100637833 0.6193649953462207
5392500000.0 -0.15383413161327866 0.6179299302396645 -0.5893044420153558 -0.0448229751791549 -0.5893044420153558 -0.0448229751791549 -0.15383413161327866 0.6179299302396645
5395000000.0 -0.15251626044072786 0.6164835075078118 -0.5904672164360442 -0.04297701115732707 -0.5904672164360442 -0.04297701115732707 -0.15251626044072786 0.6164835075078118
5397500000.0 -0.1512020534603981 0.6150255801335222 -0.5916275734876091 -0.04111847293343085 -0.5916275734876091 -0.04111847293343085 -0.1512020534603981 0.6150255801335222
5400000000.0 -0.14989167367908438 0.6135560060322892 -0.5927853680471239 -0.03924718493687653 -0.5927853680471239 -0.03924718493687653 -0.14989167367908438 0.6135560060322892
5402500000.0 -0.1485852899551965 0.6120746481913347 -0.5939404481926416 -0.03736297582169073 -0.5939404481926416 -0.03736297582169073 -0.1485852899551965 0.6120746481913347
5405000000.0 -0.14728307675850938 0.6105813747986318 -0.595092655424828 -0.035465678636264576 -0.595092655424828 -0.035465678636264576 -0.14728307675850938 0.6105813747986318
5407500000.0 -0.1459852139308244 0.6090760593620681 -0.5962418248892696 -0.033555130982965066 -0.5962418248892696 -0.033555130982965066 -0.1459852139308244 0.6090760593620681
5410000000.0 -0.14469188644782213 0.607558580819023 -0.5973877855990825 -0.031631175167845714 -0.5973877855990825 -0.031631175167845714 -0.14469188644782213 0.607558580819023
5412500000.0 -0.1434032841823761 0.6060288236367072 -0.598530360657585 -0.029693658340693405 -0.598530360657585 -0.029693658340693405 -0.1434032841823761 0.6060288236367072
5415000000.0 -0.14211960166952134 0.6044866779034379 -0.5996693674807152 -0.027742432625647465 -0.5996693674807152 -0.027742432625647465 -0.14211960166952134 0.6044866779034379
5417500000.0 -0.14084103787336935 0.6029320394111644 -0.6008046180189256 -0.02577735524263343 -0.6008046180189256 -0.02577735524263343 -0.14084103787336935 0.6029320394111644
5420000000.0 -0.13956779595610325 0.6013648097295282 -0.6019359189783127 -0.023798288619850012 -0.6019359189783127 -0.023798288619850012 -0.13956779595610325 0.6013648097295282
5422500000.0 -0.13830008304932304 0.5997848962716973 -0.6030630720407415 -0.021805100497556126 -0.6030630720407415 -0.021805100497556126 -0.13830008304932304 0.5997848962716973
5425000000.0 -0.13703811002786412 0.5981922123522567 -0.6041858740827243 -0.019797664023396645 -0.6041858740827243 -0.019797664023396645 -0.13703811002786412 0.5981922123522567
5427500000.0 -0.13578209128628543 0.5965866772374218 -0.6053041173928586 -0.01777585783951044 -0.6053041173928586 -0.01777585783951044 -0.13578209128628543 0.5965866772374218
5430000000.0 -0.13453224451820778 0.5949682161878177 -0.6064175898876023 -0.015739566161659113 -0.6064175898876023 -0.015739566161659113 -0.13453224451820778 0.5949682161878177
5432500000.0 -0.13328879049858913 0.5933367604941198 -0.6075260753252207 -0.0136886788506273 -0.6075260753252207 -0.0136886788506273 -0.13328879049858913 0.5933367604941198
5435000000.0 -0.13205195286913946 0.5916922475057756 -0.6086293535177137 -0.011623091476123016 -0.6086293535177137 -0.011623091476123016 -0.13205195286913946 0.5916922475057756
5437500000.0 -0.1308219579269402 0.5900346206530842 -0.609727200540552 -0.009542705373426422 -0.609727200540552 -0.009542705373426422 -0.1308219579269402 0.5900346206530842
5440000000.0 -0.12959903441643225 0.5883638294628859 -0.6108193889400992 -0.007447427693018126 -0.6108193889400992 -0.007447427693018126 -0.12959903441643225 0.5883638294628859
5442500000.0 -0.12838341332481543 0.5866798295680857 -0.6119056879385387 -0.0053371714434229 -0.6119056879385387 -0.0053371714434229 -0.12838341332481543 0.5866798295680857
5445000000.0 -0.12717532768103032 0.5849825827112869 -0.612985863636198 -0.003211855527501338 -0.612985863636198 -0.003211855527501338 -0.12717532768103032 0.5849825827112869
5447500000.0 -0.12597501235832095 0.583272056742742 -0.6140596792111483 -0.0010714047724239323 -0.6140596792111483 -0.0010714047724239323 -0.12597501235832095 0.583272056742742
5450000000.0 -0.12478270388051733 0.5815482256128943 -0.6151268951159432 0.0010842500464422302 -0.6151268951159432 0.0010842500464422302 -0.12478270388051733 0.5815482256128943
5452500000.0 -0.12359864023206814 0.579811069359694 -0.6161872692714384 0.0032551721875353286 -0.6161872692714384 0.0032551721875353286 -0.12359864023206814 0.579811069359694
5455000000.0 -0.12242306067189752 0.578060574090966 -0.6172405572575407 0.0054414189307225086 -0.6172405572575407 0.0054414189307225086 -0.12242306067189752 0.578060574090966
5457500000.0 -0.12125620555112511 0.5762967319620107 -0.6182865125008589 0.0076430415703707 -0.6182865125008589 0.0076430415703707 -0.12125620555112511 0.5762967319620107
5460000000.0 -0.12009831613469275 0.5745195411486791 -0.6193248864591416 0.009860085413620233 -0.6193248864591416 0.009860085413620233 -0.12009831613469275 0.5745195411486791
5462500000.0 -0.11894963442693325 0.5727290058161416 -0.620355428802442 0.012092589783663815 -0.620355428802442 0.012092589783663815 -0.11894963442693325 0.5727290058161416
5465000000.0 -0.11781040300111854 0.5709251360835204 -0.6213778875909638 0.014340588027827611 -0.6213778875909638 0.014340588027827611 -0.11781040300111854 0.5709251360835204
5467500000.0 -0.11668086483297511 0.5691079479846572 -0.6223920094495108 0.01660410753022495 -0.6223920094495108 0.01660410753022495 -0.11668086483297511 0.5691079479846572
5470000000.0 -0.11556126313822253 0.5672774634251254 -0.6233975397385262 0.018883169728816106 -0.6233975397385262 0.018883169728816106 -0.11556126313822253 0.5672774634251254
5472500000.0 -0.11445184121412312 0.5654337101357831 -0.624394222721639 0.021177790136657812 -0.624394222721639 0.021177790136657812 -0.11445184121412312 0.5654337101357831
5475000000.0 -0.11335284228502664 0.563576721622966 -0.6253818017297249 0.023487978367159365 -0.6253818017297249 0.023487978367159365 -0.11335284228502664 0.563576721622966
5477500000.0 -0.11226450935195054 0.5617065371155608 -0.6263600193214452 0.025813738163140674 -0.6263600193214452 0.025813738163140674 -0.11226450935195054 0.5617065371155608
5480000000.0 -0.11118708504614329 0.5598232015091278 -0.6273286174402074 0.02815506742953346 -0.6273286174402074 0.02815506742953346 -0.11118708504614329 0.5598232015091278
5482500000.0 -0.11012081148664774 0.5579267653072223 -0.628287337567601 0.030511958269537467 -0.628287337567601 0.030511958269537467 -0.11012081148664774 0.5579267653072223
5485000000.0 -0.10906593014183674 0.5560172845601173 -0.6292359208732272 0.03288439702403374 -0.6292359208732272 0.03288439702403374 -0.10906593014183674 0.5560172845601173
5487500000.0 -0.10802268169489766 0.5540948208010853 -0.6301741083609671 0.035272364314129175 -0.6301741083609671 0.035272364314129175 -0.10802268169489766 0.5540948208010853
5490000000.0 -0.10699130591323984 0.5521594409803765 -0.6311016410116674 0.03767583508661815 -0.6311016410116674 0.03767583508661815 -0.10699130591323984 0.5521594409803765
5492500000.0 -0.10597204152180584 0.5502112173970859 -0.6320182599222528 0.040094778662234064 -0.6320182599222528 0.040094778662234064 -0.10597204152180584 0.5502112173970859
5495000000.0 -0.1049651260802279 0.5482502276289964 -0.6329237064412621 0.04252915878652219 -0.6329237064412621 0.04252915878652219 -0.1049651260802279 0.5482502276289964
5497500000.0 -0.10397079586384238 0.5462765544606816 -0.6338177223008656 0.04497893368316111 -0.6338177223008656 0.04497893368316111 -0.10397079586384238 0.5462765544606816
5500000000.0 -0.10298928574845373 0.5442902858097894 -0.6347000497453065 0.0474440561096276 -0.6347000497453065 0.0474440561096276 -0.10298928574845373 0.5442902858097894
5502500000.0 -0.10202082909886927 0.5422915146518645 -0.6355704316558505 0.04992447341500515 -0.6355704316558505 0.04992447341500515 -0.10202082909886927 0.5422915146518645
5505000000.0 -0.1010656576611276 0.5402803389437072 -0.6364286116722496 0.0524201275998455 -0.6364286116722496 0.0524201275998455 -0.1010656576611276 0.5402803389437072
5507500000.0 -0.10012400145837413 0.5382568615454267 -0.6372743343107279 0.05493095537791805 -0.6372743343107279 0.05493095537791805 -0.10012400145837413 0.5382568615454267
5510000000.0 -0.09919608869034764 0.5362211901413416 -0.6381073450785458 0.05745688823971208 -0.6381073450785458 0.05745688823971208 -0.09919608869034764 0.5362211901413416
5512500000.0 -0.0982821456364096 0.5341734371598046 -0.6389273905851569 0.05999785251759872 -0.6389273905851569 0.05999785251759872 -0.0982821456364096 0.5341734371598046
5515000000.0 -0.0973823965620879 0.5321137196920847 -0.6397342186500071 0.0625537694524747 -0.6397342186500071 0.0625537694524747 -0.0973823965620879 0.5321137196920847
5517500000.0 -0.09649706362903644 0.5300421594104253 -0.6405275784069998 0.06512455526182095 -0.6405275784069998 0.06512455526182095 -0.09649706362903644 0.5300421594104253
5520000000.0 -0.09562636680841097 0.5279588824853495 -0.641307220405681 0.0677101212090305 -0.641307220405681 0.0677101212090305 -0.09562636680841097 0.5279588824853495
5522500000.0 -0.09477052379755407 0.5258640195023666 -0.6420728967091769 0.07031037367389478 -0.6420728967091769 0.07031037367389478 -0.09477052379755407 0.5258640195023666
5525000000.0 -0.09392974993995094 0.5237577053781199 -0.6428243609889291 0.07292521422416443 -0.6428243609889291 0.07292521422416443 -0.09392974993995094 0.5237577053781199
5527500000.0 -0.09310425814839897 0.5216400792761061 -0.6435613686162848 0.07555453968804154 -0.6435613686162848 0.07555453968804154 -0.09310425814839897 0.5216400792761061
5530000000.0 -0.09229425883132045 0.5195112845220495 -0.6442836767509652 0.07819824222754296 -0.6442836767509652 0.07819824222754296 -0.09229425883132045 0.5195112845220495
5532500000.0 -0.09149995982216413 0.5173714685189946 -0.6449910444264926 0.08085620941262422 -0.6449910444264926 0.08085620941262422 -0.09149995982216413 0.5173714685189946
5535000000.0 -0.09072156631182621 0.5152207826622324 -0.6456832326325952 0.0835283242959511 -0.6456832326325952 0.0835283242959511 -0.09072156631182621 0.5152207826622324
5537500000.0 -0.08995928078401734 0.5130593822541033 -0.6463600043946672 0.08621446548827032 -0.6463600043946672 0.08621446548827032 -0.08995928078401734 0.5130593822541033
5540000000.0 -0.08921330295355262 0.5108874264187818 -0.6470211248503156 0.08891450723425547 -0.6470211248503156 0.08891450723425547 -0.08921330295355262 0.5108874264187818
5542500000.0 -0.08848382970744043 0.5087050780170874 -0.6476663613230624 0.09162831948877559 -0.6476663613230624 0.09162831948877559 -0.08848382970744043 0.5087050780170874
5545000000.0 -0.08777105504876091 0.5065125035614053 -0.6482954833932509 0.09435576799349524 -0.6482954833932509 0.09435576799349524 -0.08777105504876091 0.5065125035614053
5547500000.0 -0.08707517004322798 0.5043098731307715 -0.6489082629662035 0.09709671435372356 -0.6489082629662035 0.09709671435372356 -0.08707517004322798 0.5043098731307715
5550000000.0 -0.08639636276840199 0.5020973602861915 -0.6495044743377 0.09985101611546088 -0.6495044743377 0.09985101611546088 -0.08639636276840199 0.5020973602861915
5552500000.0 -0.08573481826545834 0.49987514198624394 -0.6500838942568267 0.10261852684256743 -0.6500838942568267 0.10261852684256743 -0.08573481826545834 0.49987514198624394
5555000000.0 -0.08509071849347638 0.4976433985030121 -0.6506463019862426 0.10539909619396255 -0.6506463019862426 0.10539909619396255 -0.08509071849347638 0.4976433985030121
5557500000.0 -0.0844642422861656 0.4954023133384237 -0.6511914793599389 0.1081925700008515 -0.6511914793599389 0.1081925700008515 -0.0844642422861656 0.4954023133384237
5560000000.0 -0.08385556531096526 0.49315207314102183 -0.65171921083853 0.1109987903438522 -0.65171921083853 0.1109987903438522 -0.08385556531096526 0.49315207314102183
5562500000.0 -0.08326486003047125 0.4908928676232149 -0.652229283562145 0.11381759563001827 -0.652229283562145 0.11381759563001827 -0.08326486003047125 0.4908928676232149
5565000000.0 -0.08269229566609465 0.48862488947905924 -0.6527214874009728 0.11664882066968411 -0.6527214874009728 0.11664882066968411 -0.08269229566609465 0.48862488947905924
5567500000.0 -0.08213803816392594 0.48634833430261015 -0.6531956150035126 0.11949229675307287 -0.6531956150035126 0.11949229675307287 -0.08213803816392594 0.48634833430261015
5570000000.0 -0.08160225016271999 0.48406340050686797 -0.6536514618425989 0.122347851726646 -0.6536514618425989 0.122347851726646 -0.08160225016271999 0.48406340050686797
5572500000.0 -0.08108509096393333 0.4817702892433757 -0.6540888262592427 0.1252153100691177 -0.6540888262592427 0.1252153100691177 -0.08108509096393333 0.4817702892433757
5575000000.0 -0.08058671650378607 0.479469204322479 -0.6545075095043602 0.12809449296711944 -0.6545075095043602 0.12809449296711944 -0.08058671650378607 0.479469204322479
5577500000.0 -0.08010727932724031 0.4771603521342817 -0.6549073157784305 0.1309852183904611 -0.6549073157784305 0.1309852183904611 -0.08010727932724031 0.4771603521342817
5580000000.0 -0.07964692856387948 0.4748439415703497 -0.6552880522691525 0.13388730116694578 -0.6552880522691525 0.13388730116694578 -0.07964692856387948 0.4748439415703497
5582500000.0 -0.07920580990560555 0.47252018394614675 -0.6556495291871444 0.1368005530567224 -0.6556495291871444 0.1368005530567224 -0.07920580990560555 0.47252018394614675
